(1762729739.496451) can0 402#0400040004000200
(1762729739.506590) can0 403#0200000000000000
(1762729739.516403) can0 401#0000808080000000
(1762729739.526283) can0 402#0400040004000200
(1762729739.536618) can0 403#0200000000000000
(1762729739.546334) can0 401#0000808080000000
(1762729739.556055) can0 402#0400040004000200
(1762729739.565980) can0 403#0200000000000000
(1762729739.576223) can0 401#0000808080000000
(1762729739.585822) can0 402#0400040004000200
(1762729739.595935) can0 403#0200000000000000
(1762729739.605784) can0 401#0000808080000000
(1762729739.615616) can0 402#0400040004000200
(1762729739.625803) can0 403#0200000000000000
(1762729739.635619) can0 401#0000808080000000
(1762729739.645476) can0 402#0400040004000200
(1762729739.655791) can0 403#0200000000000000
(1762729739.665503) can0 401#0000808080000000
(1762729739.675221) can0 402#0400040004000200
(1762729739.685251) can0 403#0200000000000000
(1762729739.695381) can0 401#0000808080000000
(1762729739.705012) can0 402#0400040004000200
(1762729739.715147) can0 403#0200000000000000
(1762729739.724887) can0 401#0000808080000000
(1762729739.734851) can0 402#0400040004000200
(1762729739.744996) can0 403#0200000000000000
(1762729739.754773) can0 401#0000808080000000
(1762729739.764645) can0 402#0400040004000200
(1762729739.774931) can0 403#0200000000000000
(1762729739.784680) can0 401#0000808080000000
(1762729739.794420) can0 402#0400040004000200
(1762729739.804424) can0 403#0200000000000000
(1762729739.814574) can0 401#0000808080000000
(1762729739.824269) can0 402#0400040004000200
(1762729739.834324) can0 403#0200000000000000
(1762729739.844096) can0 401#0000808080000000
(1762729739.854080) can0 402#0400040004000200
(1762729739.864230) can0 403#0200000000000000
(1762729739.873977) can0 401#0000808080000000
(1762729739.883821) can0 402#0400040004000200
(1762729739.894098) can0 403#0200000000000000
(1762729739.903881) can0 401#0000808080000000
(1762729739.913640) can0 402#0400040004000200
(1762729739.923614) can0 403#0200000000000000
(1762729739.933793) can0 401#0000808080000000
(1762729739.943466) can0 402#0400040004000200
(1762729739.953530) can0 403#0200000000000000
(1762729739.963282) can0 401#0000808080000000
(1762729739.973240) can0 402#0400040004000200
(1762729739.983380) can0 403#0200000000000000
(1762729739.993180) can0 401#0000808080000000
(1762729740.003036) can0 402#0400040004000200
(1762729740.013283) can0 403#0200000000000000
(1762729740.023058) can0 401#0000808080000000
(1762729740.032854) can0 402#0400040004000200
(1762729740.042737) can0 403#0200000000000000
(1762729740.052979) can0 401#0000808080000000
(1762729740.062644) can0 402#0400040004000200
(1762729740.072629) can0 403#0200000000000000
(1762729740.082512) can0 401#0000808080000000
(1762729740.092458) can0 402#0400040004000200
(1762729740.102532) can0 403#0200000000000000
(1762729740.112374) can0 401#0000808080000000
(1762729740.122234) can0 402#0400040004000200
(1762729740.132417) can0 403#0200000000000000
(1762729740.142300) can0 401#0000808080000000
(1762729740.152051) can0 402#0400040004000200
(1762729740.161932) can0 403#0200000000000000
(1762729740.172206) can0 401#0000808080000000
(1762729740.181769) can0 402#0400040004000200
(1762729740.191852) can0 403#0200000000000000
(1762729740.201702) can0 401#0000808080000000
(1762729740.211579) can0 402#0400040004000200
(1762729740.221812) can0 403#0200000000000000
(1762729740.231546) can0 401#0000808080000000
(1762729740.241371) can0 402#0400040004000200
(1762729740.251664) can0 403#0200000000000000
(1762729740.261437) can0 401#0000808080000000
(1762729740.271235) can0 402#0400040004000200
(1762729740.281188) can0 403#0200000000000000
(1762729740.291341) can0 401#0000808080000000
(1762729740.300981) can0 402#0400040004000200
(1762729740.311054) can0 403#0200000000000000
(1762729740.320843) can0 401#0000808080000000
(1762729740.330827) can0 402#0400040004000200
(1762729740.340968) can0 403#0200000000000000
(1762729740.350737) can0 401#0000808080000000
(1762729740.360603) can0 402#0400040004000200
(1762729740.370852) can0 403#0200000000000000
(1762729740.380626) can0 401#0000808080000000
(1762729740.390424) can0 402#0400040004000200
(1762729740.400387) can0 403#0200000000000000
(1762729740.410534) can0 401#0000808080000000
(1762729740.420175) can0 402#0400040004000200
(1762729740.430247) can0 403#0200000000000000
(1762729740.440032) can0 401#0000808080000000
(1762729740.450015) can0 402#0400040004000200
(1762729740.460174) can0 403#0200000000000000
(1762729740.469929) can0 401#0000808080000000
(1762729740.479793) can0 402#0400040004000200
(1762729740.490042) can0 403#0200000000000000
(1762729740.499818) can0 401#0000808080000000
(1762729740.509598) can0 402#0400040004000200
(1762729740.519562) can0 403#0200000000000000
(1762729740.529740) can0 401#0000808080000000
(1762729740.539387) can0 402#0400040004000200
(1762729740.549464) can0 403#0200000000000000
(1762729740.559243) can0 401#0000808080000000
(1762729740.569163) can0 402#0400040004000200
(1762729740.579356) can0 403#0200000000000000
(1762729740.589128) can0 401#0000808080000000
(1762729740.598959) can0 402#0400040004000200
(1762729740.609211) can0 403#0200000000000000
(1762729740.619011) can0 401#0000808080000000
(1762729740.628786) can0 402#0400040004000200
(1762729740.638768) can0 403#0200000000000000
(1762729740.648927) can0 401#0000808080000000
(1762729740.658558) can0 402#0400040004000200
(1762729740.668626) can0 403#0200000000000000
(1762729740.678414) can0 401#0000808080000000
(1762729740.688379) can0 402#0400040004000200
(1762729740.698554) can0 403#0200000000000000
(1762729740.708319) can0 401#0000808080000000
(1762729740.718152) can0 402#0400040004000200
(1762729740.728407) can0 403#0200000000000000
(1762729740.738204) can0 401#0000808080000000
(1762729740.747975) can0 402#0400040004000200
(1762729740.757957) can0 403#0200000000000000
(1762729740.768124) can0 401#0000808080000000
(1762729740.777750) can0 402#0400040004000200
(1762729740.787821) can0 403#0200000000000000
(1762729740.797606) can0 401#0000808080000000
(1762729740.807566) can0 402#0400040004000200
(1762729740.817724) can0 403#0200000000000000
(1762729740.827512) can0 401#0000808080000000
(1762729740.837343) can0 402#0400040004000200
(1762729740.847590) can0 403#0200000000000000
(1762729740.857393) can0 401#0000808080000000
(1762729740.867164) can0 402#0400040004000200
(1762729740.877125) can0 403#0200000000000000
(1762729740.887309) can0 401#0000808080000000
(1762729740.896942) can0 402#0400040004000200
(1762729740.907010) can0 403#0200000000000000
(1762729740.916796) can0 401#0000808080000000
(1762729740.926765) can0 402#0400040004000200
(1762729740.936915) can0 403#0200000000000000
(1762729740.946699) can0 401#0000808080000000
(1762729740.956533) can0 402#0400040004000200
(1762729740.966783) can0 403#0200000000000000
(1762729740.976585) can0 401#0000808080000000
(1762729740.986354) can0 402#0400040004000200
(1762729740.996309) can0 403#0200000000000000
(1762729741.006496) can0 401#0000808080000000
(1762729741.016188) can0 402#0400040004000200
(1762729741.026159) can0 403#0200000000000000
(1762729741.036054) can0 401#0000808080000000
(1762729741.046024) can0 402#0400040004000200
(1762729741.056134) can0 403#0200000000000000
(1762729741.065976) can0 401#0000808080000000
(1762729741.075854) can0 402#0400040004000200
(1762729741.085962) can0 403#0200000000000000
(1762729741.095873) can0 401#0000808080000000
(1762729741.105553) can0 402#0400040004000200
(1762729741.115457) can0 403#0200000000000000
(1762729741.125771) can0 401#0000808080000000
(1762729741.135325) can0 402#0400040004000200
(1762729741.145419) can0 403#0200000000000000
(1762729741.155280) can0 401#0000808080000000
(1762729741.165119) can0 402#0400040004000200
(1762729741.175270) can0 403#0200000000000000
(1762729741.185073) can0 401#0000808080000000
(1762729741.194974) can0 402#0400040004000200
(1762729741.205148) can0 403#0200000000000000
(1762729741.215032) can0 401#0000808080000000
(1762729741.224754) can0 402#0400040004000200
(1762729741.234668) can0 403#0200000000000000
(1762729741.244982) can0 401#0000808080000000
(1762729741.254507) can0 402#0400040004000200
(1762729741.264612) can0 403#0200000000000000
(1762729741.274380) can0 401#0000808080000000
(1762729741.284314) can0 402#0400040004000200
(1762729741.294500) can0 403#0200000000000000
(1762729741.304289) can0 401#0000808080000000
(1762729741.314085) can0 402#0400040004000200
(1762729741.324392) can0 403#0200000000000000
(1762729741.334221) can0 401#0000808080000000
(1762729741.343897) can0 402#0400040004000200
(1762729741.353878) can0 403#0200000000000000
(1762729741.364124) can0 401#0000808080000000
(1762729741.373691) can0 402#0400040004000200
(1762729741.383773) can0 403#0200000000000000
(1762729741.393641) can0 401#0000808080000000
(1762729741.403490) can0 402#0400040004000200
(1762729741.413644) can0 403#0200000000000000
(1762729741.423466) can0 401#0000808080000000
(1762729741.433330) can0 402#0400040004000200
(1762729741.443601) can0 403#0200000000000000
(1762729741.453361) can0 401#0000808080000000
(1762729741.463121) can0 402#0400040004000200
(1762729741.473065) can0 403#0200000000000000
(1762729741.483252) can0 401#0000808080000000
(1762729741.492937) can0 402#0400040004000200
(1762729741.502989) can0 403#0200000000000000
(1762729741.512758) can0 401#0000808080000000
(1762729741.522757) can0 402#0400040004000200
(1762729741.532918) can0 403#0200000000000000
(1762729741.542653) can0 401#0000808080000000
(1762729741.552550) can0 402#0400040004000200
(1762729741.562718) can0 403#0200000000000000
(1762729741.572575) can0 401#0000808080000000
(1762729741.582350) can0 402#0400040004000200
(1762729741.592221) can0 403#0200000000000000
(1762729741.602484) can0 401#0000808080000000
(1762729741.612068) can0 402#0400040004000200
(1762729741.622161) can0 403#0200000000000000
(1762729741.632015) can0 401#0000808080000000
(1762729741.641875) can0 402#0400040004000200
(1762729741.652134) can0 403#0200000000000000
(1762729741.661836) can0 401#0000808080000000
(1762729741.671729) can0 402#0400040004000200
(1762729741.681977) can0 403#0200000000000000
(1762729741.691752) can0 401#0000808080000000
(1762729741.701522) can0 402#0400040004000200
(1762729741.711413) can0 403#0200000000000000
(1762729741.721667) can0 401#0000808080000000
(1762729741.731321) can0 402#0400040004000200
(1762729741.741308) can0 403#0200000000000000
(1762729741.751199) can0 401#0000808080000000
(1762729741.761056) can0 402#0400040004000200
(1762729741.771267) can0 403#0200000000000000
(1762729741.781043) can0 401#0000808080000000
(1762729741.790886) can0 402#0400040004000200
(1762729741.801162) can0 403#0200000000000000
(1762729741.810925) can0 401#0000808080000000
(1762729741.820718) can0 402#0400040004000200
(1762729741.830669) can0 403#0200000000000000
(1762729741.840838) can0 401#0000808080000000
(1762729741.850520) can0 402#0400040004000200
(1762729741.860488) can0 403#0200000000000000
(1762729741.870394) can0 401#0000808080000000
(1762729741.880318) can0 402#0400040004000200
(1762729741.890406) can0 403#0200000000000000
(1762729741.900318) can0 401#0000808080000000
(1762729741.910061) can0 402#0400040004000200
(1762729741.920355) can0 403#0200000000000000
(1762729741.930197) can0 401#0000808080000000
(1762729741.939861) can0 402#0400040004000200
(1762729741.949879) can0 403#0200000000000000
(1762729741.960018) can0 401#0000808080000000
(1762729741.969697) can0 402#0400040004000200
(1762729741.979748) can0 403#0200000000000000
(1762729741.989525) can0 401#0000808080000000
(1762729741.999497) can0 402#0400040004000200
(1762729742.009645) can0 403#0200000000000000
(1762729742.019426) can0 401#0000808080000000
(1762729742.029297) can0 402#0400040004000200
(1762729742.039544) can0 403#0200000000000000
(1762729742.049317) can0 401#0000808080000000
(1762729742.059118) can0 402#0400040004000200
(1762729742.069111) can0 403#0200000000000000
(1762729742.079224) can0 401#0000808080000000
(1762729742.088862) can0 402#0400040004000200
(1762729742.098917) can0 403#0200000000000000
(1762729742.299074) can0 403#0200000000000000
(1762729742.299180) can0 438#037F1013AAAAAAAA
(1762729742.299250) can0 000#0000FFFF00000000
(1762729742.299384) can0 402#7804000704000200
(1762729742.299480) can0 401#0000800105000000
(1762729742.307377) can0 403#0200000000000000
(1762729742.317704) can0 401#0000800000000000
(1762729742.327303) can0 402#0101890704000200
(1762729742.337292) can0 403#0200000000000000
(1762729742.347123) can0 401#0000800000000000
(1762729742.357095) can0 402#E900B20704000200
(1762729742.367176) can0 403#0200000000000000
(1762729742.377119) can0 401#0000800000000000
(1762729742.386845) can0 402#D300EF0704000200
(1762729742.397174) can0 403#0200000000000000
(1762729742.397917) can0 2B3#000F010100000000
(1762729742.406907) can0 401#0000800000000000
(1762729742.416641) can0 402#D4003A0804000200
(1762729742.426644) can0 403#0200000000000000
(1762729742.436811) can0 401#0000800000000000
(1762729742.446485) can0 402#D700840804000200
(1762729742.456501) can0 403#0200000000000000
(1762729742.466316) can0 401#0000800000000000
(1762729742.476203) can0 402#AE00CC0804000200
(1762729742.486381) can0 403#0200000000000000
(1762729742.496270) can0 401#0000800000000000
(1762729742.497904) can0 2B3#000F010100000000
(1762729742.506023) can0 402#C100FB0804000200
(1762729742.516268) can0 403#0200000000000000
(1762729742.526118) can0 401#0000800000000000
(1762729742.535834) can0 402#C500150904000200
(1762729742.545822) can0 403#0200000000000000
(1762729742.554923) can0 2B1#8011801100000000
(1762729742.555026) can0 2B3#100F0E0000000000
(1762729742.555152) can0 2BE#0000000000FFFFFF
(1762729742.555273) can0 3B6#3202000000320300
(1762729742.555327) can0 3B6#19
(1762729742.555451) can0 3B6#3300000000000000
(1762729742.556381) can0 401#0000800000000000
(1762729742.563784) can0 2B1#801180110000007B
(1762729742.563892) can0 3B6#3201000000320500
(1762729742.563984) can0 3B6#330000000C000000
(1762729742.565647) can0 402#C300120904000200
(1762729742.573775) can0 2B1#801180110000007B
(1762729742.573877) can0 3B6#3201000000320500
(1762729742.573993) can0 3B6#330000000C000000
(1762729742.575640) can0 403#0200000000000000
(1762729742.583783) can0 2B1#801180110000007B
(1762729742.583857) can0 3B6#3201000000320500
(1762729742.583975) can0 3B6#330000000C000000
(1762729742.585495) can0 401#0000800000000000
(1762729742.593757) can0 2B1#801180110000007C
(1762729742.593856) can0 3B6#3201000000320500
(1762729742.593979) can0 3B6#330000000C000000
(1762729742.595425) can0 402#AF000E0904000200
(1762729742.603730) can0 3B6#3201000000320500
(1762729742.603826) can0 2B1#801180110000007C
(1762729742.603969) can0 2BE#01007FFF00000000
(1762729742.604077) can0 3B6#330000000C000000
(1762729742.605551) can0 403#0200000000000000
(1762729742.613773) can0 2B1#801180110000007D
(1762729742.613853) can0 3B6#3201000000320500
(1762729742.613989) can0 3B6#330000000C000000
(1762729742.615393) can0 401#0000800000000000
(1762729742.618426) can0 3E5#000000000000001C
(1762729742.618544) can0 364#0000000000000000
(1762729742.618669) can0 369#0000000000000000
(1762729742.618794) can0 36A#0000000000000000
(1762729742.618919) can0 36B#0000000000000000
(1762729742.619060) can0 371#0000000000000000
(1762729742.619169) can0 3E1#0000000000000000
(1762729742.619296) can0 3EA#0000000000000000
(1762729742.619420) can0 3EB#00000000FFCEFFCE
(1762729742.619535) can0 3ED#0000000000000000
(1762729742.619669) can0 3EF#0000000000000000
(1762729742.619988) can0 60A#221710009600
(1762729742.621043) can0 702#0000000000000000
(1762729742.623561) can0 37F#04C6000000000000
(1762729742.623759) can0 2B1#801180110000007E
(1762729742.623874) can0 3B6#3201000000320500
(1762729742.623996) can0 3B6#330000000C000000
(1762729742.625200) can0 402#AD00230904000200
(1762729742.629169) can0 360#0000039300000000
(1762729742.629266) can0 361#04C304AD00000000
(1762729742.629384) can0 362#00000000FFCE0000
(1762729742.629501) can0 36C#0000000000000000
(1762729742.629639) can0 36D#0000000000000000
(1762729742.629793) can0 36E#0000000000000000
(1762729742.629867) can0 372#00430000FC0B03F5
(1762729742.630004) can0 3E2#03E8000000000000
(1762729742.630145) can0 3EC#0000000000000000
(1762729742.630252) can0 471#0130000003F50000
(1762729742.630390) can0 472#0000000000000000
(1762729742.632458) can0 60A#2200180200
(1762729742.633834) can0 2B1#801180110000007E
(1762729742.633959) can0 3B6#3201000000320500
(1762729742.634031) can0 3B6#330000000C000000
(1762729742.635514) can0 403#0200000000000000
(1762729742.640385) can0 3E5#000000000000001C
(1762729742.640459) can0 364#19D1000000000000
(1762729742.640625) can0 36F#0000000000000000
(1762729742.640728) can0 370#0000000000000000
(1762729742.640850) can0 373#0000000000000000
(1762729742.640991) can0 3E3#0000000000000000
(1762729742.641107) can0 3E6#0000000000000000
(1762729742.641226) can0 3EA#0000000000000000
(1762729742.641360) can0 3EB#00000000FFCEFFCE
(1762729742.641486) can0 3ED#0000000000000000
(1762729742.641611) can0 474#0000000000000000
(1762729742.643540) can0 60A#220018030000
(1762729742.643772) can0 2B1#801180110000007F
(1762729742.643900) can0 3B6#3201000000320500
(1762729742.644012) can0 3B6#330000000C000000
(1762729742.645317) can0 401#0000800000000000
(1762729742.650188) can0 360#000003A900000000
(1762729742.650268) can0 361#04C304AD00000000
(1762729742.650432) can0 362#00000000FFCE0000
(1762729742.650515) can0 374#0000000000000000
(1762729742.650637) can0 3E4#0001000100000080
(1762729742.650766) can0 3E9#0000000003740000
(1762729742.650892) can0 3EC#0000000000000000
(1762729742.651010) can0 471#011A000003F50000
(1762729742.651143) can0 476#0000000000000000
(1762729742.651263) can0 6F4#0000000000000000
(1762729742.653749) can0 3B6#3201000000320500
(1762729742.653819) can0 2B1#801180110000007F
(1762729742.653970) can0 2BE#8000000000FFFFFF
(1762729742.654076) can0 2B3#100F0E0000000000
(1762729742.654195) can0 3B6#330000000C000000
(1762729742.654947) can0 60A#220018050000
(1762729742.655033) can0 402#BB00460904000200
(1762729742.660820) can0 3E5#000000000000001C
(1762729742.660889) can0 363#0000000000000000
(1762729742.661023) can0 364#1A49000000000000
(1762729742.661133) can0 368#0011000000000000
(1762729742.661261) can0 375#0000000000000000
(1762729742.661382) can0 3EA#0000000000000000
(1762729742.661515) can0 3EB#00000000FFCEFFCE
(1762729742.661652) can0 3ED#0000000000000000
(1762729742.661769) can0 3EE#0000000000000000
(1762729742.661881) can0 470#001100000000FC00
(1762729742.662007) can0 6F0#0000000000000000
(1762729742.663781) can0 2B1#801180110000007D
(1762729742.663871) can0 3B6#3201000000320500
(1762729742.664025) can0 3B6#330000000C000000
(1762729742.664993) can0 403#0200000000000000
(1762729742.670810) can0 360#0000039300010000
(1762729742.670916) can0 361#04C104AD00010000
(1762729742.670993) can0 362#00000000FFCE0000
(1762729742.671114) can0 369#0000000000000000
(1762729742.671245) can0 36A#0000000000000000
(1762729742.671359) can0 36B#0000000000000000
(1762729742.671489) can0 376#0000000000000000
(1762729742.671612) can0 3EC#0000000000000000
(1762729742.671746) can0 3EF#0000000000000000
(1762729742.671872) can0 471#011A000103F50000
(1762729742.671993) can0 6F1#0000000000000000
(1762729742.673806) can0 2B1#801180110000007E
(1762729742.673891) can0 3B6#3201000000320500
(1762729742.674009) can0 3B6#330000000C000000
(1762729742.675197) can0 401#0000800000000000
(1762729742.682018) can0 3E5#000000000000001C
(1762729742.682118) can0 364#19C4000000000000
(1762729742.682249) can0 36C#0000000000000000
(1762729742.682366) can0 36D#0000000000000000
(1762729742.682490) can0 36E#0000000000000000
(1762729742.682616) can0 3EA#0000000000000000
(1762729742.682739) can0 3EB#00000000FFCEFFCE
(1762729742.682870) can0 3ED#0000000000000000
(1762729742.682991) can0 472#0000000000000000
(1762729742.683117) can0 473#0000000008000000
(1762729742.683244) can0 6F2#0000000000000000
(1762729742.683743) can0 2B1#801180110000007E
(1762729742.683859) can0 3B6#3201000000320500
(1762729742.683971) can0 3B6#330000000C000000
(1762729742.684817) can0 402#B100560904000200
(1762729742.691816) can0 360#0000039000020000
(1762729742.691876) can0 361#052204AB00020000
(1762729742.692024) can0 362#00000000FFCE0000
(1762729742.692139) can0 36F#0000000000000000
(1762729742.692304) can0 370#0000000000000000
(1762729742.692394) can0 3E6#0000000000000000
(1762729742.692532) can0 3EC#0000000000000000
(1762729742.692642) can0 471#0135000203F50000
(1762729742.692768) can0 474#0000000000000000
(1762729742.692907) can0 477#FFFF000000000000
(1762729742.693011) can0 6F3#0DA80DA800000000
(1762729742.693827) can0 2B1#801180110000007D
(1762729742.693929) can0 3B6#3201000000320500
(1762729742.694016) can0 3B6#330000000C000000
(1762729742.694851) can0 403#0200000000000000
(1762729742.702741) can0 3E5#000000000000001C
(1762729742.702825) can0 364#19B7000000000000
(1762729742.702923) can0 3E9#0000000003740000
(1762729742.703041) can0 3EA#0000000000000000
(1762729742.703153) can0 3EB#00000000FFCEFFCE
(1762729742.703288) can0 3ED#0000000000000000
(1762729742.703399) can0 475#0000000000000000
(1762729742.703531) can0 476#0000000000000000
(1762729742.703669) can0 6F4#0000000000000000
(1762729742.703784) can0 2B1#801180110000007E
(1762729742.703936) can0 2BE#81007FFF00000000
(1762729742.704033) can0 3B6#330000000C000000
(1762729742.704165) can0 3B6#3201000000320500
(1762729742.704289) can0 6F7#000000000C450000
(1762729742.705394) can0 401#0000800000000000
(1762729742.712615) can0 360#0000039300010000
(1762729742.712683) can0 361#066904A600010000
(1762729742.712826) can0 362#00000000FFCE0000
(1762729742.712939) can0 363#0000000000000000
(1762729742.713069) can0 368#0011000000000000
(1762729742.713188) can0 3EC#0000000000000000
(1762729742.713315) can0 3EE#0000000000000000
(1762729742.713445) can0 470#001100000000FC00
(1762729742.713560) can0 471#01DB000103F50000
(1762729742.713682) can0 6F6#0000000000000000
(1762729742.713808) can0 2B1#801180110000007D
(1762729742.713935) can0 3B6#3201000000320500
(1762729742.714046) can0 3B6#330000000C000000
(1762729742.714609) can0 402#B4004E0904000200
(1762729742.722575) can0 3E5#000000000000001C
(1762729742.722691) can0 364#19E8000000000000
(1762729742.722813) can0 369#0000000000000000
(1762729742.722941) can0 36A#0000000000000000
(1762729742.723065) can0 36B#0000000000000000
(1762729742.723189) can0 371#0000000000000000
(1762729742.723316) can0 3EA#0000000000000000
(1762729742.723441) can0 3EB#00000000FFCEFFCE
(1762729742.723566) can0 3ED#0000000000000000
(1762729742.723693) can0 3EF#0000000000000000
(1762729742.723814) can0 2B1#801180110000007D
(1762729742.723935) can0 3B6#3201000000320500
(1762729742.724058) can0 3B6#330000000C000000
(1762729742.724183) can0 469#0C42000000000000
(1762729742.724831) can0 403#0200000000000000
(1762729742.730458) can0 37F#04C6000000000000
(1762729742.733198) can0 360#0000038C00020000
(1762729742.733271) can0 361#07DE04A300020000
(1762729742.733378) can0 362#00000000FFCE0000
(1762729742.733547) can0 36C#0000000000000000
(1762729742.733620) can0 36D#0000000000000000
(1762729742.733754) can0 36E#0000000000000000
(1762729742.733872) can0 2B1#801180110000007D
(1762729742.733998) can0 372#00660000FC0B03F5
(1762729742.734124) can0 3B6#3201000000320500
(1762729742.734263) can0 3B6#330000000C000000
(1762729742.734367) can0 3EC#0000000000000000
(1762729742.734535) can0 471#03F0000203F50000
(1762729742.734606) can0 472#0000000000000000
(1762729742.734733) can0 6F8#00000000000003E8
(1762729742.735482) can0 401#0000800000000000
(1762729742.743714) can0 3E5#000000000000001C
(1762729742.743825) can0 2B1#801180110000007D
(1762729742.743948) can0 364#1534000000000000
(1762729742.744067) can0 36F#0000000000000000
(1762729742.744193) can0 370#0000000000000000
(1762729742.744315) can0 373#0000000000000000
(1762729742.744437) can0 3B6#3201000000320500
(1762729742.744558) can0 3B6#330000000C000000
(1762729742.744687) can0 3E6#0000000000000000
(1762729742.744814) can0 3EA#0000000000000000
(1762729742.744934) can0 3EB#00000000FFCEFFCE
(1762729742.745063) can0 3ED#0000000000000000
(1762729742.745199) can0 402#B200480904000200
(1762729742.745328) can0 474#0000000000000000
(1762729742.753788) can0 360#0000038700010000
(1762729742.753879) can0 361#0953049E00010000
(1762729742.753931) can0 2B1#801180110000007D
(1762729742.754041) can0 362#00000000FFCE0000
(1762729742.754179) can0 2BE#0000000000FFFFFF
(1762729742.754318) can0 374#0000000000000000
(1762729742.754404) can0 2B3#100F0E0000000000
(1762729742.754528) can0 3B6#3201000000320500
(1762729742.754646) can0 3B6#330000000C000000
(1762729742.754773) can0 3E9#0000000003740000
(1762729742.754897) can0 3EC#0000000000000000
(1762729742.755028) can0 471#03F0000103F50000
(1762729742.755148) can0 476#0000000000000000
(1762729742.755275) can0 6F4#0000000000000000
(1762729742.755969) can0 403#0200000000000000
(1762729742.763787) can0 2B1#801180110000007E
(1762729742.763881) can0 3B6#3201000000320500
(1762729742.764001) can0 3B6#330000000C000000
(1762729742.764120) can0 3E5#000000000000001C
(1762729742.764253) can0 363#0000000000000000
(1762729742.764371) can0 364#1540000000000000
(1762729742.764495) can0 368#0011000000000000
(1762729742.764622) can0 375#0000000000000000
(1762729742.764749) can0 3EA#0000000000000000
(1762729742.764873) can0 3EB#00000000FFCEFFCE
(1762729742.764997) can0 3ED#0000000000000000
(1762729742.765121) can0 3EE#0000000000000000
(1762729742.765246) can0 470#001100000000FC00
(1762729742.765821) can0 401#0000800000000000
(1762729742.773751) can0 2B1#801180110000007E
(1762729742.773856) can0 3B6#3201000000320500
(1762729742.773976) can0 3B6#330000000C000000
(1762729742.774289) can0 402#C000530904000200
(1762729742.775940) can0 360#0000038200010000
(1762729742.776061) can0 361#0AC9049E00010000
(1762729742.776187) can0 362#00000000FFCE0000
(1762729742.776301) can0 369#0000000000000000
(1762729742.776429) can0 36A#0000000000000000
(1762729742.776550) can0 36B#0000000000000000
(1762729742.776681) can0 376#0000000000000000
(1762729742.776804) can0 3EC#0000000000000000
(1762729742.776935) can0 3EF#0000000000000000
(1762729742.777051) can0 471#05CC000103F50000
(1762729742.784153) can0 2B1#801180110000007F
(1762729742.784301) can0 3B6#3201000000320500
(1762729742.784359) can0 3B6#330000000C000000
(1762729742.784653) can0 403#0200000000000000
(1762729742.787167) can0 3E5#000000000000001C
(1762729742.787261) can0 364#1512000000000000
(1762729742.787395) can0 36C#0000000000000000
(1762729742.787512) can0 36D#0000000000000000
(1762729742.787646) can0 36E#0000000000000000
(1762729742.787767) can0 3EA#0000000000000000
(1762729742.787891) can0 3EB#00000000FFCEFFCE
(1762729742.788018) can0 3ED#0000000000000000
(1762729742.788139) can0 472#0000000000000000
(1762729742.788267) can0 473#0000000008000000
(1762729742.793771) can0 2B1#801180110000007F
(1762729742.793882) can0 3B6#3201000000320500
(1762729742.794001) can0 3B6#330000000C000000
(1762729742.794868) can0 401#0000800000000000
(1762729742.797884) can0 360#0000039D00000000
(1762729742.797970) can0 361#0C9C049C00000000
(1762729742.798072) can0 362#00000000FFCE0000
(1762729742.798221) can0 36F#0000000000000000
(1762729742.798369) can0 370#0000000000000000
(1762729742.798446) can0 3E6#0000000000000000
(1762729742.798584) can0 3EC#0000000000000000
(1762729742.798692) can0 471#07A2000003F50000
(1762729742.798833) can0 474#0000000000000000
(1762729742.798943) can0 477#FFFF000000000000
(1762729742.803767) can0 2B1#801180110000007F
(1762729742.803876) can0 2BE#01007FFF00000000
(1762729742.803991) can0 3B6#330000000C000000
(1762729742.804110) can0 3B6#3201000000320500
(1762729742.804236) can0 402#A900690904000200
(1762729742.809152) can0 3E5#000000000000001C
(1762729742.809286) can0 364#1573000000000000
(1762729742.809381) can0 3E9#0000000003740000
(1762729742.809514) can0 3EA#0000000000000000
(1762729742.809631) can0 3EB#00000000FFCEFFCE
(1762729742.809761) can0 3ED#0000000000000000
(1762729742.809886) can0 476#0000000000000000
(1762729742.810009) can0 6F4#0000000000000000
(1762729742.810131) can0 6F7#000000000C460000
(1762729742.813793) can0 2B1#801180110000007F
(1762729742.813884) can0 3B6#3201000000320500
(1762729742.814027) can0 3B6#330000000C000000
(1762729742.814994) can0 403#0200000000000000
(1762729742.820044) can0 360#0000038200010000
(1762729742.820137) can0 361#0E14049C00010000
(1762729742.820252) can0 362#00000000FFCE0000
(1762729742.820374) can0 363#0000000000000000
(1762729742.820504) can0 368#0011000000000000
(1762729742.820617) can0 3E0#0DE90C4600000D7E
(1762729742.820746) can0 3EC#0000000000000000
(1762729742.820869) can0 3EE#0000000000000000
(1762729742.820993) can0 470#001100000000FC00
(1762729742.821113) can0 471#09CA000103F50000
(1762729742.823712) can0 3B6#3201000000320500
(1762729742.823835) can0 2B1#801180110000007F
(1762729742.823954) can0 3B6#330000000C000000
(1762729742.824768) can0 401#0000800000000000
(1762729742.825190) can0 60B#221710009600
(1762729742.831588) can0 3E5#000000000000001C
(1762729742.831692) can0 364#14FA000000000000
(1762729742.831765) can0 369#0000000000000000
(1762729742.831937) can0 36A#0000000000000000
(1762729742.832012) can0 36B#0000000000000000
(1762729742.832157) can0 371#0000000000000000
(1762729742.832270) can0 3E1#0000000000000000
(1762729742.832407) can0 3EA#0000000000000000
(1762729742.832518) can0 3EB#00000000FFCEFFCE
(1762729742.832643) can0 3ED#0000000000000000
(1762729742.832771) can0 3EF#0000000000000000
(1762729742.833946) can0 2B1#801180110000007F
(1762729742.834005) can0 3B6#3201000000320500
(1762729742.834040) can0 3B6#330000000C000000
(1762729742.834182) can0 402#BE00700904000200
(1762729742.836003) can0 37F#04C6000000000000
(1762729742.837867) can0 60B#2200180200
(1762729742.841137) can0 360#00E5038300000000
(1762729742.841249) can0 361#0F85049E00000000
(1762729742.841365) can0 362#00180000FFCE0000
(1762729742.841489) can0 36C#0000000000000000
(1762729742.841616) can0 36D#0000000000000000
(1762729742.841737) can0 36E#0000000000000000
(1762729742.841859) can0 372#00670000FC0B03F5
(1762729742.841981) can0 3E2#03E80084FFFF0000
(1762729742.842105) can0 3EC#0000000000000000
(1762729742.842225) can0 471#0BA9000003F50000
(1762729742.842349) can0 472#0000000000000000
(1762729742.843752) can0 2B1#801180110000007E
(1762729742.843853) can0 3B6#3201000000320500
(1762729742.843982) can0 3B6#330000000C000000
(1762729742.844856) can0 403#0200000000000000
(1762729742.850628) can0 60B#220018030000
(1762729742.851344) can0 3E5#000000000000001C
(1762729742.851447) can0 364#150C000000000000
(1762729742.851581) can0 36F#0000000000000000
(1762729742.851700) can0 370#0000000000000000
(1762729742.851821) can0 373#0000000000000000
(1762729742.851942) can0 3E3#0000000000000000
(1762729742.852071) can0 3E6#0000000000000000
(1762729742.852198) can0 3EA#0000000000000000
(1762729742.852364) can0 3EB#00000000FFCEFFCE
(1762729742.852464) can0 3ED#0000000000000000
(1762729742.852580) can0 474#0000000000000000
(1762729742.853805) can0 2B1#801180110000007E
(1762729742.853884) can0 2B3#100F0E0000000000
(1762729742.854043) can0 2BE#8000000000FFFFFF
(1762729742.854154) can0 3B6#3201000000320500
(1762729742.854267) can0 3B6#330000000C000000
(1762729742.854394) can0 401#0000800000000000
(1762729742.861165) can0 360#00D5038600010000
(1762729742.861267) can0 361#105004A100010000
(1762729742.861396) can0 362#00170000FFCE0000
(1762729742.861516) can0 374#0000000000000000
(1762729742.861646) can0 3E4#0001000100000080
(1762729742.861775) can0 3E9#0000000003740000
(1762729742.861899) can0 3EC#0000000000000000
(1762729742.862015) can0 471#0BA9000103F50000
(1762729742.862149) can0 476#0000000000000000
(1762729742.862276) can0 6F4#0000000000000000
(1762729742.862362) can0 60B#220018050000
(1762729742.863695) can0 402#BD005F0904000200
(1762729742.863828) can0 2B1#801180110000007D
(1762729742.863927) can0 3B6#3201000000320500
(1762729742.864045) can0 3B6#330000000C000000
(1762729742.871715) can0 3E5#000000000000001C
(1762729742.871798) can0 363#0000000000000000
(1762729742.871831) can0 364#1432000000000000
(1762729742.871951) can0 368#0011000000000000
(1762729742.872072) can0 375#0000000000000000
(1762729742.872210) can0 3EA#0000000000000000
(1762729742.872319) can0 3EB#00000000FFCEFFCE
(1762729742.872443) can0 3ED#0000000000000000
(1762729742.872576) can0 3EE#0000000000000000
(1762729742.872698) can0 470#001100000000FC00
(1762729742.872815) can0 6F0#0000000000000000
(1762729742.873762) can0 2B1#801180110000007D
(1762729742.873877) can0 3B6#3201000000320500
(1762729742.873992) can0 3B6#330000000C000000
(1762729742.874750) can0 403#0200000000000000
(1762729742.881662) can0 360#00D1038E00010000
(1762729742.881757) can0 361#106504A100010000
(1762729742.881894) can0 362#00160000FFCE0000
(1762729742.881999) can0 369#0000000500000003
(1762729742.882123) can0 36A#0000000000000000
(1762729742.882243) can0 36B#0000000000000000
(1762729742.882366) can0 376#0000000000000000
(1762729742.882491) can0 3EC#0000000000000000
(1762729742.882619) can0 3EF#0000000000000000
(1762729742.882738) can0 471#0CDA000103F50000
(1762729742.882865) can0 6F1#0000000000000000
(1762729742.883764) can0 401#0000800000000000
(1762729742.883876) can0 2B1#801180110000007D
(1762729742.883992) can0 3B6#3201000000320500
(1762729742.884122) can0 3B6#330000000C000000
(1762729742.891831) can0 3E5#000000000000001C
(1762729742.891914) can0 364#145E000000000000
(1762729742.892043) can0 36C#0000000000000000
(1762729742.892166) can0 36D#0000000000000000
(1762729742.892289) can0 36E#0000000000000000
(1762729742.892426) can0 3EA#0000000000000000
(1762729742.892541) can0 3EB#00000000FFCEFFCE
(1762729742.892676) can0 3ED#0000000000000000
(1762729742.892791) can0 472#0000000000000000
(1762729742.892925) can0 473#0000000008000000
(1762729742.893039) can0 6F2#0000000000000000
(1762729742.893475) can0 402#BB004F0904000200
(1762729742.893734) can0 2B1#801180110000007D
(1762729742.893851) can0 3B6#3201000000320500
(1762729742.893971) can0 3B6#330000000C000000
(1762729742.902786) can0 360#00D0039400010000
(1762729742.902880) can0 361#106104A100010000
(1762729742.903005) can0 362#00160000FFCE0000
(1762729742.903124) can0 36F#0000000000000000
(1762729742.903252) can0 370#0000000000000000
(1762729742.903380) can0 3E6#0000000000000000
(1762729742.903503) can0 3EC#0000000000000000
(1762729742.903625) can0 471#0CD7000103F50000
(1762729742.903754) can0 474#0000000000000000
(1762729742.903874) can0 2B1#801180110000007E
(1762729742.904001) can0 2BE#81007FFF00000000
(1762729742.904126) can0 3B6#330000000C000000
(1762729742.904256) can0 3B6#3201000000320500
(1762729742.904373) can0 477#FFFF000000000000
(1762729742.904505) can0 6F3#0DA80DA800000000
(1762729742.904627) can0 6F5#0000000000000000
(1762729742.905502) can0 403#0200000000000000
(1762729742.913544) can0 3E5#000000000000001C
(1762729742.913605) can0 364#1469000000000000
(1762729742.913747) can0 3B6#3201000000320500
(1762729742.913868) can0 2B1#801180110000007E
(1762729742.914001) can0 3B6#330000000C000000
(1762729742.914115) can0 3E9#0000000003740000
(1762729742.914239) can0 3EA#0000000000000000
(1762729742.914361) can0 3EB#00000000FFCEFFCE
(1762729742.914487) can0 3ED#0000000000000000
(1762729742.914619) can0 401#0000800000000000
(1762729742.914738) can0 475#0000000000000000
(1762729742.914863) can0 476#0000000000000000
(1762729742.914994) can0 6F4#0000000000000000
(1762729742.915108) can0 6F7#000000000C460000
(1762729742.923300) can0 402#A1005D0904000200
(1762729742.923635) can0 360#00D5038A00010000
(1762729742.923749) can0 361#106304A100010000
(1762729742.923868) can0 2B1#801180110000007F
(1762729742.923988) can0 362#00160000FFCE0000
(1762729742.924111) can0 363#0000000000000000
(1762729742.924237) can0 368#0011000000000000
(1762729742.924361) can0 3B6#3201000000320500
(1762729742.924478) can0 3B6#330000000C000000
(1762729742.924608) can0 3EC#0000000000000000
(1762729742.924731) can0 3EE#0000000000000000
(1762729742.924856) can0 470#001100000000FC00
(1762729742.924976) can0 471#0CD8000103F50000
(1762729742.925100) can0 6F6#0000000000000000
(1762729742.933345) can0 403#0200000000000000
(1762729742.933658) can0 3E5#000000000000001C
(1762729742.933795) can0 364#1448000000000000
(1762729742.933906) can0 2B1#801180110000007F
(1762729742.934016) can0 369#0000000B00000003
(1762729742.934153) can0 36A#0000000000000000
(1762729742.934271) can0 36B#0000000000000000
(1762729742.934402) can0 371#0000000000000000
(1762729742.934514) can0 3B6#3201000000320500
(1762729742.934637) can0 3B6#330000000C000000
(1762729742.934766) can0 3EA#0000000000000000
(1762729742.934917) can0 3EB#00000000FFCEFFCE
(1762729742.935086) can0 3ED#0000000000000000
(1762729742.935156) can0 3EF#0000000000000000
(1762729742.935299) can0 469#0C43000000000000
(1762729742.937835) can0 37F#04C6000000000000
(1762729742.943259) can0 401#0000800000000000
(1762729742.943757) can0 2B1#801180110000007F
(1762729742.943869) can0 3B6#3201000000320500
(1762729742.943989) can0 3B6#330000000C000000
(1762729742.945579) can0 360#00DA038C00010000
(1762729742.945698) can0 361#106504A300010000
(1762729742.945819) can0 362#00180000FFCE0000
(1762729742.945938) can0 36C#0000000000000000
(1762729742.946068) can0 36D#0000000000000000
(1762729742.946195) can0 36E#0000000000000000
(1762729742.946310) can0 372#00670000FC0B03F5
(1762729742.946437) can0 3EC#0000000000000000
(1762729742.946552) can0 471#0CDA000103F50000
(1762729742.946681) can0 472#0000000000000000
(1762729742.946821) can0 6F8#00000000000003E8
(1762729742.953125) can0 402#B500730904000200
(1762729742.953808) can0 2B1#801180110000007F
(1762729742.953879) can0 2B3#100F0E0000000000
(1762729742.954031) can0 2BE#0000000000FFFFFF
(1762729742.954143) can0 3B6#3201000000320500
(1762729742.954334) can0 3B6#330000000C000000
(1762729742.957301) can0 3E5#000000000000001C
(1762729742.957374) can0 364#144E000000000000
(1762729742.957521) can0 36F#0000000000000000
(1762729742.957630) can0 370#0000000000000000
(1762729742.957761) can0 373#0000000000000000
(1762729742.957893) can0 3E6#0000000000000000
(1762729742.958011) can0 3EA#0000000000000000
(1762729742.958138) can0 3EB#00000000FFCEFFCE
(1762729742.958287) can0 3ED#0000000000000000
(1762729742.958381) can0 474#0000000000000000
(1762729742.963238) can0 403#0200000000000000
(1762729742.963742) can0 2B1#801180110000007F
(1762729742.963858) can0 3B6#3201000000320500
(1762729742.963981) can0 3B6#330000000C000000
(1762729742.968019) can0 360#00DD038A00000000
(1762729742.968093) can0 361#106304A800000000
(1762729742.968244) can0 362#00180000FFCE0000
(1762729742.968340) can0 374#0000000000000000
(1762729742.968457) can0 3E9#0000000003740000
(1762729742.968592) can0 3EC#0000000000000000
(1762729742.968707) can0 471#0CD9000003F50000
(1762729742.968883) can0 476#0000000000000000
(1762729742.968989) can0 6F4#0000000000000000
(1762729742.973101) can0 401#0000800000000000
(1762729742.973774) can0 2B1#801180110000007F
(1762729742.973893) can0 3B6#3201000000320500
(1762729742.974022) can0 3B6#330000000C000000
(1762729742.978886) can0 3E5#000000000000001C
(1762729742.978991) can0 363#0000000000000000
(1762729742.979114) can0 364#1438000000000000
(1762729742.979237) can0 368#0011000000000000
(1762729742.979361) can0 375#0000000000000000
(1762729742.979485) can0 3EA#0000000000000000
(1762729742.979609) can0 3EB#00000000FFCEFFCE
(1762729742.979741) can0 3ED#0000000000000000
(1762729742.979860) can0 3EE#0000000000000000
(1762729742.979984) can0 470#001100000000FC00
(1762729742.982880) can0 402#B600770904000200
(1762729742.983828) can0 2B1#801180110000007F
(1762729742.983909) can0 3B6#3201000000320500
(1762729742.984029) can0 3B6#330000000C000000
(1762729742.991515) can0 360#00DD038700010000
(1762729742.991617) can0 361#106104B000010000
(1762729742.991737) can0 362#00180000FFCE0000
(1762729742.991872) can0 369#0000001300000003
(1762729742.991985) can0 36A#0000000000000000
(1762729742.992118) can0 36B#0000000000000000
(1762729742.992241) can0 376#0000000000000000
(1762729742.992366) can0 3EC#0000000000000000
(1762729742.992503) can0 3EF#0000000000000000
(1762729742.992621) can0 471#0CD9000103F50000
(1762729742.993553) can0 403#0200000000000000
(1762729742.993750) can0 3B6#3201000000320500
(1762729742.993862) can0 2B1#801180110000007E
(1762729742.993980) can0 3B6#330000000C000000
(1762729743.002688) can0 3E5#000000000000001C
(1762729743.002790) can0 364#142D000000000000
(1762729743.002911) can0 36C#0000000000000000
(1762729743.003036) can0 36D#0000000000000000
(1762729743.003168) can0 36E#0000000000000000
(1762729743.003293) can0 3EA#0000000000000000
(1762729743.003410) can0 3EB#00000000FFCEFFCE
(1762729743.003537) can0 3ED#0000000000000000
(1762729743.003659) can0 472#0000000000000000
(1762729743.003795) can0 473#0000000008000000
(1762729743.003909) can0 2B1#801180110000007E
(1762729743.004033) can0 2BE#01007FFF00000000
(1762729743.004155) can0 3B6#330000000C000000
(1762729743.004278) can0 3B6#3201000000320500
(1762729743.004992) can0 401#0000800000000000
(1762729743.012695) can0 402#9D00670904000200
(1762729743.013046) can0 360#00D8038500010000
(1762729743.013160) can0 361#106504B700010000
(1762729743.013283) can0 362#00180000FFCE0000
(1762729743.013409) can0 36F#0000000000000000
(1762729743.013532) can0 370#0000000000000000
(1762729743.013659) can0 3E6#0000000000000000
(1762729743.013781) can0 2B1#801180110000007E
(1762729743.013901) can0 3B6#3201000000320500
(1762729743.014023) can0 3B6#330000000C000000
(1762729743.014152) can0 3EC#0000000000000000
(1762729743.014271) can0 471#0CDA000103F50000
(1762729743.014399) can0 474#0000000000000000
(1762729743.014522) can0 477#FFFF000000000000
(1762729743.022653) can0 403#0200000000000000
(1762729743.023253) can0 3E5#000000000000001C
(1762729743.023340) can0 364#1422000000000000
(1762729743.023464) can0 3E9#0000000003740000
(1762729743.023602) can0 3EA#0000000000000000
(1762729743.023712) can0 3EB#00000000FFCEFFCE
(1762729743.023835) can0 2B1#801180110000007D
(1762729743.023954) can0 3B6#3201000000320500
(1762729743.024077) can0 3B6#330000000C000000
(1762729743.024204) can0 3ED#0000000000000000
(1762729743.024329) can0 476#0000000000000000
(1762729743.024457) can0 6F4#0000000000000000
(1762729743.024582) can0 6F7#000000000C460000
(1762729743.030217) can0 60C#221710009600
(1762729743.032910) can0 401#0000800000000000
(1762729743.033793) can0 2B1#801180110000007E
(1762729743.033906) can0 3B6#3201000000320500
(1762729743.034032) can0 360#00DA038000010000
(1762729743.034147) can0 361#106604B700010000
(1762729743.034272) can0 362#00180000FFCE0000
(1762729743.034399) can0 363#0000000000000000
(1762729743.034517) can0 368#0011000000000000
(1762729743.034640) can0 3B6#330000000C000000
(1762729743.034759) can0 3E0#0DEA0C4600000D7F
(1762729743.034890) can0 3EC#0000000000000000
(1762729743.035016) can0 3EE#0000000000000000
(1762729743.035139) can0 470#001100000000FC00
(1762729743.035256) can0 471#0CE4000103F50000
(1762729743.041338) can0 60C#2200180200
(1762729743.042495) can0 402#C6005F0904000200
(1762729743.043566) can0 37F#04C6000000000000
(1762729743.043759) can0 2B1#801180110000007F
(1762729743.043883) can0 3B6#3201000000320500
(1762729743.044006) can0 3B6#330000000C000000
(1762729743.044783) can0 3E5#000000000000001C
(1762729743.044894) can0 364#1408000000000000
(1762729743.045021) can0 369#0000001A00000003
(1762729743.045141) can0 36A#0000000000000000
(1762729743.045271) can0 36B#0000000000000000
(1762729743.045395) can0 371#0000000000000000
(1762729743.045519) can0 3E1#0000000000000000
(1762729743.045644) can0 3EA#0000000000000000
(1762729743.045768) can0 3EB#00000000FFCEFFCE
(1762729743.045896) can0 3ED#0000000000000000
(1762729743.046023) can0 3EF#0000000000000000
(1762729743.051888) can0 60C#220018030000
(1762729743.052524) can0 403#0200000000000000
(1762729743.053805) can0 2B1#801180110000007F
(1762729743.053919) can0 2B3#100F0E0000000000
(1762729743.054029) can0 2BE#8000000000FFFFFF
(1762729743.054150) can0 3B6#3201000000320500
(1762729743.054188) can0 3B6#19
(1762729743.054323) can0 3B6#330000000C000000
(1762729743.054964) can0 360#00D9038000000000
(1762729743.055058) can0 361#106504BC00000000
(1762729743.055197) can0 362#00180000FFCE0000
(1762729743.055340) can0 36C#0000000000000000
(1762729743.055440) can0 36D#0000000000000000
(1762729743.055559) can0 36E#0000000000000000
(1762729743.055682) can0 372#00660000FC0B03F5
(1762729743.055801) can0 3E2#03E8007EFFFF0000
(1762729743.055934) can0 3EC#0000000000000000
(1762729743.056054) can0 471#0CE5000003F50000
(1762729743.056186) can0 472#0000000000000000
(1762729743.062095) can0 60C#220018050000
(1762729743.062748) can0 401#0000800000000000
(1762729743.063739) can0 3B6#3201000000320500
(1762729743.063860) can0 2B1#8011801100000080
(1762729743.063973) can0 3B6#330000000C000000
(1762729743.065056) can0 3E5#000000000000001C
(1762729743.065179) can0 364#13FC000000000000
(1762729743.065291) can0 36F#0000000000000000
(1762729743.065420) can0 370#0000000000000000
(1762729743.065546) can0 373#0000000000000000
(1762729743.065676) can0 3E3#0000000000000000
(1762729743.065796) can0 3E6#0000000000000000
(1762729743.065933) can0 3EA#0000000000000000
(1762729743.066055) can0 3EB#00000000FFCEFFCE
(1762729743.066193) can0 3ED#0000000000000000
(1762729743.066309) can0 474#0000000000000000
(1762729743.072289) can0 402#A200750904000200
(1762729743.073847) can0 3B6#3201000000320500
(1762729743.073964) can0 2B1#801180110000007F
(1762729743.074031) can0 3B6#330000000C000000
(1762729743.075038) can0 360#00DA037D00000000
(1762729743.075160) can0 361#106104C600000000
(1762729743.075262) can0 362#00180000FFCE0000
(1762729743.075392) can0 374#0000000000000000
(1762729743.075513) can0 3E4#0001000000000080
(1762729743.075643) can0 3E9#0000000003740000
(1762729743.075765) can0 3EC#0000000000000000
(1762729743.075884) can0 471#0CE5000003F50000
(1762729743.076010) can0 476#0000000000000000
(1762729743.076140) can0 6F4#0000000000000000
(1762729743.082452) can0 403#0200000000000000
(1762729743.083778) can0 2B1#8011801100000080
(1762729743.083862) can0 3B6#3201000000320500
(1762729743.083986) can0 3B6#330000000C000000
(1762729743.084893) can0 3E5#000000000000001C
(1762729743.084944) can0 363#0000000000000000
(1762729743.085047) can0 364#13F3000000000000
(1762729743.085174) can0 368#0011000000000000
(1762729743.085297) can0 375#0000000000000000
(1762729743.085418) can0 3EA#0000000000000000
(1762729743.085545) can0 3EB#00000000FFCEFFCE
(1762729743.085673) can0 3ED#0000000000000000
(1762729743.085803) can0 3EE#0000000000000000
(1762729743.085926) can0 470#001100000000FC00
(1762729743.086050) can0 6F0#0000000000000000
(1762729743.092263) can0 401#0000800000000000
(1762729743.093785) can0 3B6#3201000000320500
(1762729743.093881) can0 2B1#8011801100000080
(1762729743.094003) can0 3B6#330000000C000000
(1762729743.094927) can0 360#00DC037C00000000
(1762729743.095038) can0 361#106104D000000000
(1762729743.095153) can0 362#00180000FFCE0000
(1762729743.095277) can0 369#0000002100000003
(1762729743.095405) can0 36A#0000000000000000
(1762729743.095529) can0 36B#0000000000000000
(1762729743.095650) can0 376#0000000000000000
(1762729743.095784) can0 3EC#0000000000000000
(1762729743.095903) can0 3EF#0000000000000000
(1762729743.096024) can0 471#0CE4000003F50000
(1762729743.096149) can0 6F1#0000000000000000
(1762729743.102102) can0 402#06017E0904000200
(1762729743.103821) can0 2B1#801180110000007F
(1762729743.103915) can0 2BE#81007FFF00000000
(1762729743.104047) can0 3B6#330000000C000000
(1762729743.104185) can0 3B6#3201000000320500
(1762729743.104980) can0 3E5#000000000000001C
(1762729743.105087) can0 364#13E7000000000000
(1762729743.105212) can0 36C#0000000000000000
(1762729743.105345) can0 36D#0000000000000000
(1762729743.105464) can0 36E#0000000000000000
(1762729743.105588) can0 3EA#0000000000000000
(1762729743.105714) can0 3EB#00000000FFCEFFCE
(1762729743.105834) can0 3ED#0000000000000000
(1762729743.105978) can0 472#0000000000000000
(1762729743.106085) can0 473#0000000008000000
(1762729743.106215) can0 6F2#0000000000000000
(1762729743.112331) can0 403#0200000000000000
(1762729743.113778) can0 2B1#801180110000007F
(1762729743.113896) can0 3B6#3201000000320500
(1762729743.114011) can0 3B6#330000000C000000
(1762729743.115842) can0 360#00DC037700000000
(1762729743.115971) can0 361#105C04DF00000000
(1762729743.116078) can0 362#00180000FFCE0000
(1762729743.116203) can0 36F#0000000000000000
(1762729743.116322) can0 370#0000000000000000
(1762729743.116459) can0 3E6#0000000000000000
(1762729743.116576) can0 3EC#0000000000000000
(1762729743.116699) can0 471#0CE5000003F50000
(1762729743.116821) can0 474#0000000000000000
(1762729743.116945) can0 477#FFFF000000000000
(1762729743.117075) can0 6F3#0DA80DA800000000
(1762729743.122185) can0 401#0000800000000000
(1762729743.123812) can0 2B1#801180110000007F
(1762729743.123894) can0 3B6#3201000000320500
(1762729743.124018) can0 3B6#330000000C000000
(1762729743.127267) can0 3E5#000000000000001C
(1762729743.127381) can0 364#13C7000000000000
(1762729743.127497) can0 3E9#0000000003740000
(1762729743.127625) can0 3EA#0000000000000000
(1762729743.127747) can0 3EB#00000000FFCEFFCE
(1762729743.127875) can0 3ED#0000000000000000
(1762729743.127998) can0 475#0000000000000000
(1762729743.128122) can0 476#0000000000000000
(1762729743.128247) can0 6F4#0000000000000000
(1762729743.128369) can0 6F7#000000000C460000
(1762729743.131889) can0 402#6F05720904000200
(1762729743.133774) can0 2B1#801180110000007E
(1762729743.133869) can0 3B6#3201000000320500
(1762729743.133991) can0 3B6#330000000C000000
(1762729743.138551) can0 360#00DD037500000000
(1762729743.138658) can0 361#105904EC00000000
(1762729743.138704) can0 368#0011000000000000
(1762729743.138785) can0 3EC#0000000000000000
(1762729743.138917) can0 3EE#0000000000000000
(1762729743.139061) can0 470#001100000000FC00
(1762729743.139153) can0 471#0CE5000003F50000
(1762729743.139285) can0 6F6#0000000000000000
(1762729743.141848) can0 403#0200000000000000
(1762729743.143787) can0 3B6#3201000000320500
(1762729743.143912) can0 2B1#801180110000007E
(1762729743.144008) can0 3B6#330000000C000000
(1762729743.144136) can0 37F#04B6000000000000
(1762729743.148204) can0 3E5#000000000000001C
(1762729743.148307) can0 364#13C7000000000000
(1762729743.148430) can0 369#0000000300000003
(1762729743.148552) can0 36A#0000000000000000
(1762729743.148684) can0 36B#0000000000000000
(1762729743.148805) can0 371#0000000000000000
(1762729743.148931) can0 3EA#0000000000000000
(1762729743.149073) can0 3EB#00000000FFCEFFCE
(1762729743.149186) can0 3ED#0000000000000000
(1762729743.149307) can0 3EF#0000000000000000
(1762729743.149428) can0 469#0C2B000000000000
(1762729743.152114) can0 401#0000800000000000
(1762729743.153772) can0 2B1#801180110000007D
(1762729743.153912) can0 2B3#100F0E0000000000
(1762729743.154002) can0 2BE#0000000000FFFFFF
(1762729743.154128) can0 3B6#3201000000320500
(1762729743.154253) can0 3B6#330000000C000000
(1762729743.157960) can0 360#00DD037600000000
(1762729743.158052) can0 361#105C04EC00000000
(1762729743.158189) can0 362#00180000FFCE0000
(1762729743.158307) can0 36C#0000000000000000
(1762729743.158432) can0 36D#0000000000000000
(1762729743.158549) can0 36E#0000000000000000
(1762729743.158676) can0 372#00680000FC0B03F5
(1762729743.158797) can0 3EC#0000000000000000
(1762729743.158924) can0 471#0CE5000003F50000
(1762729743.159068) can0 472#0000000000000000
(1762729743.159171) can0 6F8#00000000000003E8
(1762729743.161695) can0 402#0B075E0904000200
(1762729743.163804) can0 2B1#801180110000007E
(1762729743.163901) can0 3B6#3201000000320500
(1762729743.164022) can0 3B6#330000000C000000
(1762729743.169629) can0 3E5#000000000000001C
(1762729743.169694) can0 364#13C7000000000000
(1762729743.169832) can0 36F#0000000000000000
(1762729743.169955) can0 370#0000000000000000
(1762729743.170075) can0 373#0000000000000000
(1762729743.170207) can0 3E6#0000000000000000
(1762729743.170341) can0 3EA#0000000000000000
(1762729743.170452) can0 3EB#00000000FFCEFFCE
(1762729743.170584) can0 3ED#0000000000000000
(1762729743.170708) can0 474#0000000000000000
(1762729743.171712) can0 403#0200000000000000
(1762729743.173829) can0 2B1#801180110000007E
(1762729743.173891) can0 3B6#3201000000320500
(1762729743.174023) can0 3B6#330000000C000000
(1762729743.179764) can0 360#00DA037900000000
(1762729743.179864) can0 361#105C04F800000000
(1762729743.179991) can0 362#00180000FFCE0000
(1762729743.180110) can0 374#0000000000000000
(1762729743.180235) can0 3E9#0000000003740000
(1762729743.180359) can0 3EC#0000000000000000
(1762729743.180485) can0 471#0CE6000003F50000
(1762729743.180610) can0 476#0000000000000000
(1762729743.180730) can0 6F4#0000000000000000
(1762729743.181573) can0 401#0000800000000000
(1762729743.183790) can0 2B1#801180110000007F
(1762729743.183921) can0 3B6#3201000000320500
(1762729743.184015) can0 3B6#330000000C000000
(1762729743.191467) can0 402#A607640904000200
(1762729743.192740) can0 3E5#000000000000001C
(1762729743.192850) can0 363#0000000000000000
(1762729743.192942) can0 364#13DC000000000000
(1762729743.193049) can0 368#0011000000000000
(1762729743.193224) can0 375#0000000000000000
(1762729743.193294) can0 3EA#0000000000000000
(1762729743.193423) can0 3EB#00000000FFCEFFCE
(1762729743.193562) can0 3ED#0000000000000000
(1762729743.193669) can0 3EE#0000000000000000
(1762729743.193802) can0 470#001100000000FC00
(1762729743.193927) can0 2B1#801180110000007F
(1762729743.194044) can0 3B6#3201000000320500
(1762729743.194163) can0 3B6#330000000C000000
(1762729743.201750) can0 403#0200000000000000
(1762729743.203616) can0 360#00DA037E00000000
(1762729743.203745) can0 361#1060050200000000
(1762729743.203848) can0 2B1#8011801100000080
(1762729743.203970) can0 362#00180000FFCE0000
(1762729743.204095) can0 2BE#01007FFF00000000
(1762729743.204218) can0 369#0000000B00000003
(1762729743.204343) can0 36A#0000000000000000
(1762729743.204470) can0 36B#0000000000000000
(1762729743.204595) can0 376#0000000000000000
(1762729743.204713) can0 3B6#3201000000320500
(1762729743.204835) can0 3B6#330000000C000000
(1762729743.204963) can0 3EC#0000000000000000
(1762729743.205089) can0 3EF#0000000000000000
(1762729743.205209) can0 471#0CE3000003F50000
(1762729743.211429) can0 401#0000800000000000
(1762729743.213117) can0 3E5#000000000000001C
(1762729743.213241) can0 364#13FC000000000000
(1762729743.213365) can0 36C#0000000000000000
(1762729743.213490) can0 36D#0000000000000000
(1762729743.213614) can0 36E#0000000000000000
(1762729743.213741) can0 3EA#0000000000000000
(1762729743.213860) can0 2B1#8011801100000080
(1762729743.213981) can0 3B6#3201000000320500
(1762729743.214103) can0 3B6#330000000C000000
(1762729743.214226) can0 3EB#00000000FFCEFFCE
(1762729743.214355) can0 3ED#0000000000000000
(1762729743.214479) can0 472#0000000000000000
(1762729743.214602) can0 473#0000000008000000
(1762729743.221300) can0 402#F407830904000200
(1762729743.223526) can0 360#00DE038000000000
(1762729743.223584) can0 361#1061050C00000000
(1762729743.223650) can0 370#0000000000000000
(1762729743.223808) can0 2B1#8011801100000080
(1762729743.223908) can0 3B6#3201000000320500
(1762729743.224032) can0 3B6#330000000C000000
(1762729743.224157) can0 3E6#0000000000000000
(1762729743.224295) can0 3EC#0000000000000000
(1762729743.224408) can0 471#0CE1000003F50000
(1762729743.224538) can0 474#0000000000000000
(1762729743.224660) can0 477#FFFF000000000000
(1762729743.231517) can0 403#0200000000000000
(1762729743.232672) can0 3E5#000000000000001C
(1762729743.232782) can0 364#1411000000000000
(1762729743.232910) can0 3E9#0000000003740000
(1762729743.233036) can0 3EA#0000000000000000
(1762729743.233161) can0 3EB#00000000FFCEFFCE
(1762729743.233291) can0 3ED#0000000000000000
(1762729743.233408) can0 476#0000000000000000
(1762729743.233535) can0 6F4#0000000000000000
(1762729743.233654) can0 6F7#000000000C460000
(1762729743.233753) can0 60D#221710009600
(1762729743.233880) can0 2B1#8011801100000081
(1762729743.234000) can0 3B6#3201000000320500
(1762729743.234121) can0 3B6#330000000C000000
(1762729743.241380) can0 401#0000800000000000
(1762729743.243714) can0 360#00E1037B00000000
(1762729743.243783) can0 2B1#8011801100000080
(1762729743.243913) can0 361#105E051600000000
(1762729743.244037) can0 362#00180000FFCE0000
(1762729743.244162) can0 363#0000000000000000
(1762729743.244279) can0 368#0011000000000000
(1762729743.244412) can0 3B6#3201000000320500
(1762729743.244523) can0 3B6#330000000C000000
(1762729743.244647) can0 3E0#0DEA0C4500000D81
(1762729743.244766) can0 3EC#0000000000000000
(1762729743.244894) can0 3EE#0000000000000000
(1762729743.245017) can0 470#001100000000FC00
(1762729743.245135) can0 471#0CE1000003F50000
(1762729743.245231) can0 60D#2200180200
(1762729743.251088) can0 402#0F08910904000200
(1762729743.252778) can0 37F#04B4000000000000
(1762729743.253672) can0 3E5#000000000000001C
(1762729743.253783) can0 2B1#8011801100000080
(1762729743.253907) can0 2B3#100F0E0000000000
(1762729743.254033) can0 2BE#8000000000FFFFFF
(1762729743.254162) can0 364#13F0000000000000
(1762729743.254281) can0 369#0000001200000003
(1762729743.254406) can0 36A#0000000000000000
(1762729743.254530) can0 36B#0000000000000000
(1762729743.254655) can0 371#0000000000000000
(1762729743.254777) can0 3B6#3201000000320500
(1762729743.254899) can0 3B6#330000000C000000
(1762729743.255028) can0 3E1#0000000000000000
(1762729743.255156) can0 3EA#0000000000000000
(1762729743.255273) can0 3EB#00000000FFCEFFCE
(1762729743.255401) can0 3ED#0000000000000000
(1762729743.255528) can0 3EF#0000000000000000
(1762729743.255630) can0 60D#220018030000
(1762729743.261023) can0 403#0200000000000000
(1762729743.263823) can0 2B1#801180110000007F
(1762729743.263920) can0 3B6#3201000000320500
(1762729743.264047) can0 3B6#330000000C000000
(1762729743.264567) can0 360#00E2037700000000
(1762729743.264668) can0 361#105C051600000000
(1762729743.264803) can0 362#00180000FFCE0000
(1762729743.264927) can0 36C#0000000000000000
(1762729743.265041) can0 36D#0000000000000000
(1762729743.265165) can0 36E#0000000000000000
(1762729743.265290) can0 372#00690000FC0B03F5
(1762729743.265409) can0 3E2#03E80084FFFF0000
(1762729743.265536) can0 3EC#0000000000000000
(1762729743.265665) can0 471#0CE1000003F50000
(1762729743.265788) can0 472#0000000000000000
(1762729743.265880) can0 60D#220018050000
(1762729743.271368) can0 401#0000800000000000
(1762729743.273781) can0 2B1#801180110000007E
(1762729743.273879) can0 3B6#3201000000320500
(1762729743.274005) can0 3B6#330000000C000000
(1762729743.274216) can0 3E5#000000000000001C
(1762729743.274332) can0 364#13D9000000000000
(1762729743.274456) can0 36F#0000000000000000
(1762729743.274589) can0 370#0000000000000000
(1762729743.274707) can0 373#0000000000000000
(1762729743.274833) can0 3E3#0000000000000000
(1762729743.274962) can0 3E6#0000000000000000
(1762729743.275094) can0 3EA#0000000000000000
(1762729743.275220) can0 3EB#00000000FFCEFFCE
(1762729743.275342) can0 3ED#0000000000000000
(1762729743.275471) can0 474#0000000000000000
(1762729743.280867) can0 402#06087E0904000200
(1762729743.283802) can0 3B6#3201000000320500
(1762729743.283904) can0 2B1#801180110000007E
(1762729743.284018) can0 3B6#330000000C000000
(1762729743.284626) can0 360#00E1037400000000
(1762729743.284705) can0 361#105E052000000000
(1762729743.284835) can0 362#00170000FFCE0000
(1762729743.284957) can0 374#0000000000000000
(1762729743.285084) can0 3E4#0001000000000080
(1762729743.285209) can0 3E9#0000000003740000
(1762729743.285340) can0 3EC#0000000000000000
(1762729743.285457) can0 471#0CE5000003F50000
(1762729743.285582) can0 476#0000000000000000
(1762729743.285705) can0 6F4#0000000000000000
(1762729743.290914) can0 403#0200000000000000
(1762729743.293796) can0 2B1#801180110000007E
(1762729743.293877) can0 3B6#3201000000320500
(1762729743.294001) can0 3B6#330000000C000000
(1762729743.296149) can0 3E5#000000000000001C
(1762729743.296284) can0 363#0000000000000000
(1762729743.296377) can0 364#13BC000000000000
(1762729743.296503) can0 368#0011000000000000
(1762729743.296630) can0 375#0000000000000000
(1762729743.296754) can0 3EA#0000000000000000
(1762729743.296883) can0 3EB#00000000FFCEFFCE
(1762729743.297000) can0 3ED#0000000000000000
(1762729743.297128) can0 3EE#0000000000000000
(1762729743.297255) can0 470#001100000000FC00
(1762729743.297379) can0 6F0#0000000000000000
(1762729743.300766) can0 401#0000800000000000
(1762729743.303859) can0 2B1#801180110000007E
(1762729743.303955) can0 2BE#81007FFF00000000
(1762729743.304039) can0 3B6#330000000C000000
(1762729743.304222) can0 3B6#3201000000320500
(1762729743.306073) can0 360#00E0037000000000
(1762729743.306157) can0 361#105E052D00000000
(1762729743.306289) can0 362#00170000FFCE0000
(1762729743.306406) can0 369#0000001900000003
(1762729743.306538) can0 36A#0000000000000000
(1762729743.306660) can0 36B#0000000000000000
(1762729743.306782) can0 376#0000000000000000
(1762729743.306908) can0 3EC#0000000000000000
(1762729743.307048) can0 3EF#0000000000000000
(1762729743.307156) can0 471#0CEB000003F50000
(1762729743.307283) can0 6F1#0000000000000000
(1762729743.310705) can0 402#FD07730904000200
(1762729743.313843) can0 2B1#801180110000007F
(1762729743.313908) can0 3B6#3201000000320500
(1762729743.314050) can0 3B6#330000000C000000
(1762729743.316974) can0 3E5#000000000000001C
(1762729743.317041) can0 364#13A7000000000000
(1762729743.317209) can0 36C#0000000000000000
(1762729743.317302) can0 36D#0000000000000000
(1762729743.317426) can0 36E#0000000000000000
(1762729743.317569) can0 3EA#0000000000000000
(1762729743.317704) can0 3EB#00000000FFCEFFCE
(1762729743.317808) can0 3ED#0000000000000000
(1762729743.317934) can0 472#0000000000000000
(1762729743.318056) can0 473#0000000008000000
(1762729743.318184) can0 6F2#0000000000000000
(1762729743.320808) can0 403#0200000000000000
(1762729743.323769) can0 2B1#8011801100000080
(1762729743.323876) can0 3B6#3201000000320500
(1762729743.323993) can0 3B6#330000000C000000
(1762729743.327189) can0 360#00E3037100000000
(1762729743.327301) can0 361#105A053200000000
(1762729743.327421) can0 362#00170000FFCE0000
(1762729743.327543) can0 36F#0000000000000000
(1762729743.327669) can0 370#0000000000000000
(1762729743.327794) can0 3E6#0000000000000000
(1762729743.327922) can0 3EC#0000000000000000
(1762729743.328045) can0 471#0CE9000003F50000
(1762729743.328170) can0 474#0000000000000000
(1762729743.328292) can0 477#FFFF000000000000
(1762729743.328412) can0 6F3#0DA80DA800000000
(1762729743.330622) can0 401#0000800000000000
(1762729743.333795) can0 2B1#8011801100000080
(1762729743.333916) can0 3B6#3201000000320500
(1762729743.334039) can0 3B6#330000000C000000
(1762729743.340224) can0 3E5#000000000000001C
(1762729743.340297) can0 364#13B0000000000000
(1762729743.340445) can0 3E9#0000000003740000
(1762729743.340565) can0 3EA#0000000000000000
(1762729743.340685) can0 3EB#00000000FFCEFFCE
(1762729743.340817) can0 3ED#0000000000000000
(1762729743.340934) can0 402#1108870904000200
(1762729743.341062) can0 475#0000000000000000
(1762729743.341189) can0 476#0000000000000000
(1762729743.341328) can0 6F4#0000000000000000
(1762729743.341421) can0 6F7#000000000C450000
(1762729743.343864) can0 2B1#8011801100000080
(1762729743.343953) can0 3B6#3201000000320500
(1762729743.343986) can0 3B6#330000000C000000
(1762729743.350321) can0 360#0101037300000000
(1762729743.350442) can0 361#1059053C00000000
(1762729743.350554) can0 362#001B0000FFCE0000
(1762729743.350675) can0 363#0000000000000000
(1762729743.350800) can0 368#0011000000000000
(1762729743.350927) can0 3EC#0000000000000000
(1762729743.351051) can0 3EE#0000000000000000
(1762729743.351175) can0 470#001100000000FC00
(1762729743.351296) can0 471#0CE8000003F50000
(1762729743.351421) can0 6F6#0000000000000000
(1762729743.352336) can0 403#0200000000000000
(1762729743.353785) can0 3B6#3201000000320500
(1762729743.353892) can0 2B1#8011801100000081
(1762729743.354022) can0 2BE#0000000000FFFFFF
(1762729743.354142) can0 2B3#100F0E0000000000
(1762729743.354262) can0 3B6#330000000C000000
(1762729743.360570) can0 401#0000800000000000
(1762729743.360846) can0 3E5#000000000000001C
(1762729743.360973) can0 364#13BC000000000000
(1762729743.361088) can0 369#0000002200000003
(1762729743.361215) can0 36A#0000000000000000
(1762729743.361339) can0 36B#0000000000000000
(1762729743.361466) can0 371#0000000000000000
(1762729743.361596) can0 3EA#0000000000000000
(1762729743.361711) can0 3EB#00000000FFCEFFCE
(1762729743.361839) can0 3ED#0000000000000000
(1762729743.361967) can0 3EF#0000000000000000
(1762729743.362086) can0 469#0C2B000000000000
(1762729743.362787) can0 37F#04B4000000000000
(1762729743.363767) can0 2B1#8011801100000081
(1762729743.363885) can0 3B6#3201000000320500
(1762729743.364001) can0 3B6#330000000C000000
(1762729743.370275) can0 402#2008980904000200
(1762729743.371764) can0 360#010C036F00000000
(1762729743.371863) can0 361#1053054600000000
(1762729743.371985) can0 362#001D0000FFCE0000
(1762729743.372115) can0 36C#0000000000000000
(1762729743.372236) can0 36D#0000000000000000
(1762729743.372359) can0 36E#0000000000000000
(1762729743.372493) can0 372#00680000FC0B03F5
(1762729743.372608) can0 3EC#0000000000000000
(1762729743.372730) can0 471#0CE4000003F50000
(1762729743.372853) can0 472#0000000000000000
(1762729743.372978) can0 6F8#00000000000003E8
(1762729743.373766) can0 3B6#3201000000320500
(1762729743.373876) can0 2B1#8011801100000081
(1762729743.374000) can0 3B6#330000000C000000
(1762729743.380218) can0 403#0200000000000000
(1762729743.382630) can0 3E5#000000000000001C
(1762729743.382734) can0 364#139A000000000000
(1762729743.382799) can0 36F#0000000000000000
(1762729743.382921) can0 370#0000000000000000
(1762729743.383077) can0 373#0000000000000000
(1762729743.383177) can0 3E6#0000000000000000
(1762729743.383286) can0 3EA#0000000000000000
(1762729743.383415) can0 3EB#00000000FFCEFFCE
(1762729743.383546) can0 3ED#0000000000000000
(1762729743.383670) can0 474#0000000000000000
(1762729743.383793) can0 3B6#3201000000320500
(1762729743.383917) can0 2B1#8011801100000081
(1762729743.384033) can0 3B6#330000000C000000
(1762729743.390537) can0 401#0000800000000000
(1762729743.392262) can0 360#0122036F00000000
(1762729743.392351) can0 361#1052054600000000
(1762729743.392378) can0 362#001F0000FFCE0000
(1762729743.392521) can0 374#0000000000000000
(1762729743.392635) can0 3E9#0000000003740000
(1762729743.392763) can0 3EC#0000000000000000
(1762729743.392888) can0 471#0CE4000003F50000
(1762729743.393008) can0 476#0000000000000000
(1762729743.393138) can0 6F4#0000000000000000
(1762729743.393819) can0 2B1#8011801100000081
(1762729743.393918) can0 3B6#3201000000320500
(1762729743.394029) can0 3B6#330000000C000000
(1762729743.400265) can0 402#2E08AD0904000200
(1762729743.402793) can0 3E5#000000000000001C
(1762729743.402862) can0 363#0000000000000000
(1762729743.403001) can0 364#13A7000000000000
(1762729743.403123) can0 368#0011000000000000
(1762729743.403245) can0 375#0000000000000000
(1762729743.403369) can0 3EA#0000000000000000
(1762729743.403498) can0 3EB#00000000FFCEFFCE
(1762729743.403618) can0 3ED#0000000000000000
(1762729743.403745) can0 3EE#0000000000000000
(1762729743.403870) can0 2B1#8011801100000081
(1762729743.403998) can0 2BE#01007FFF00000000
(1762729743.404110) can0 3B6#330000000C000000
(1762729743.404232) can0 3B6#3201000000320500
(1762729743.404355) can0 470#001100000000FC00
(1762729743.410099) can0 403#0200000000000000
(1762729743.412698) can0 360#011F037000000000
(1762729743.412791) can0 361#1055055200000000
(1762729743.412926) can0 362#001F0000FFCE0000
(1762729743.413043) can0 369#0000000800000003
(1762729743.413177) can0 36A#0000000000000000
(1762729743.413292) can0 36B#0000000000000000
(1762729743.413415) can0 376#0000000000000000
(1762729743.413558) can0 3EC#0000000000000000
(1762729743.413674) can0 3EF#0000000000000000
(1762729743.413795) can0 2B1#8011801100000082
(1762729743.413919) can0 3B6#3201000000320500
(1762729743.414043) can0 3B6#330000000D000000
(1762729743.414170) can0 471#0CE4000003F50000
(1762729743.419999) can0 401#0000800000000000
(1762729743.423806) can0 2B1#8011801100000082
(1762729743.423920) can0 3B6#3201000000320500
(1762729743.424040) can0 3B6#330000000D000000
(1762729743.424912) can0 3E5#000000000000001C
(1762729743.425027) can0 364#13A7000000000000
(1762729743.425136) can0 36C#0000000000000000
(1762729743.425264) can0 36D#0000000000000000
(1762729743.425390) can0 36E#0000000000000000
(1762729743.425513) can0 3EA#0000000000000000
(1762729743.425650) can0 3EB#00000000FFCEFFCE
(1762729743.425767) can0 3ED#0000000000000000
(1762729743.425896) can0 472#0000000000000000
(1762729743.426020) can0 473#0000000008000000
(1762729743.426138) can0 6F5#0000000000000000
(1762729743.429899) can0 402#3908BC0904000200
(1762729743.433819) can0 2B1#8011801100000082
(1762729743.433944) can0 3B6#3201000000320500
(1762729743.434042) can0 3B6#330000000D000000
(1762729743.435528) can0 360#0119037000000000
(1762729743.435623) can0 361#1057056100000000
(1762729743.435748) can0 362#001D0000FFCE0000
(1762729743.435873) can0 36F#0000000000000000
(1762729743.436003) can0 370#0000000000000000
(1762729743.436122) can0 3E6#0000000000000000
(1762729743.436255) can0 3EC#0000000000000000
(1762729743.436375) can0 471#0CE8000003F50000
(1762729743.436500) can0 474#0000000000000000
(1762729743.436620) can0 477#FFFF000000000000
(1762729743.440009) can0 403#0200000000000000
(1762729743.440987) can0 60A#221710009600
(1762729743.443821) can0 2B1#8011801100000082
(1762729743.443885) can0 3B6#3201000000320500
(1762729743.444021) can0 3B6#330000000D000000
(1762729743.445931) can0 3E5#000000000000001C
(1762729743.446005) can0 364#13A7000000000000
(1762729743.446174) can0 3E9#0000000003740000
(1762729743.446270) can0 3EA#0000000000000000
(1762729743.446382) can0 3EB#00000000FFCEFFCE
(1762729743.446503) can0 3ED#0000000000000000
(1762729743.446633) can0 476#0000000000000000
(1762729743.446756) can0 6F4#0000000000000000
(1762729743.446882) can0 6F7#000000000C450000
(1762729743.449832) can0 401#0000800000000000
(1762729743.451427) can0 60A#2200180200
(1762729743.453821) can0 2B1#8011801100000082
(1762729743.453940) can0 2B3#100F0E0000000000
(1762729743.454047) can0 2BE#8000000000FFFFFF
(1762729743.454167) can0 3B6#3201000000320500
(1762729743.454294) can0 3B6#330000000D000000
(1762729743.456915) can0 360#0133036F00000000
(1762729743.457040) can0 361#1055056E00000000
(1762729743.457141) can0 362#001F0000FFCE0000
(1762729743.457271) can0 363#0000000000000000
(1762729743.457391) can0 368#0011000000000000
(1762729743.457512) can0 3E0#0DEA0C4500000D82
(1762729743.457639) can0 3EC#0000000000000000
(1762729743.457775) can0 3EE#0000000000000000
(1762729743.457895) can0 470#001100000000FC00
(1762729743.458019) can0 471#0CE4000003F50000
(1762729743.459691) can0 402#4208C70904000200
(1762729743.460933) can0 60A#220018030000
(1762729743.463390) can0 37F#04B2000000000000
(1762729743.463772) can0 3B6#3201000000320500
(1762729743.463886) can0 2B1#8011801100000083
(1762729743.464005) can0 3B6#330000000D000000
(1762729743.467313) can0 3E5#000000000000001C
(1762729743.467398) can0 364#13A7000000000000
(1762729743.467526) can0 369#0000001300000003
(1762729743.467650) can0 36A#0000000000000000
(1762729743.467773) can0 36B#0000000000000000
(1762729743.467897) can0 371#0000000000000000
(1762729743.468026) can0 3E1#0000000000000000
(1762729743.468158) can0 3EA#0000000000000000
(1762729743.468278) can0 3EB#00000000FFCEFFCE
(1762729743.468402) can0 3ED#0000000000000000
(1762729743.468530) can0 3EF#0000000000000000
(1762729743.469921) can0 403#0200000000000000
(1762729743.471205) can0 60A#220018050000
(1762729743.473861) can0 2B1#8011801100000083
(1762729743.473940) can0 3B6#3201000000320500
(1762729743.474096) can0 3B6#330000000D000000
(1762729743.477677) can0 360#014E036500000000
(1762729743.477803) can0 361#1050057A00000000
(1762729743.477906) can0 362#00240000FFCE0000
(1762729743.478033) can0 36C#0000000000000000
(1762729743.478161) can0 36D#0000000000000000
(1762729743.478293) can0 36E#0000000000000000
(1762729743.478402) can0 372#006A0000FC0B03F5
(1762729743.478531) can0 3E2#03E800BAFFFF0000
(1762729743.478655) can0 3EC#0000000000000000
(1762729743.478773) can0 471#0CEB000003F50000
(1762729743.478902) can0 472#0000000000000000
(1762729743.479719) can0 401#0000800000000000
(1762729743.483789) can0 2B1#8011801100000082
(1762729743.483896) can0 3B6#3201000000320500
(1762729743.484011) can0 3B6#330000000D000000
(1762729743.487953) can0 3E5#000000000000001C
(1762729743.488039) can0 364#1369000000000000
(1762729743.488165) can0 36F#0000000000000000
(1762729743.488290) can0 370#0000000000000000
(1762729743.488415) can0 373#0000000000000000
(1762729743.488542) can0 3E3#0000000000000000
(1762729743.488668) can0 3E6#0000000000000000
(1762729743.488800) can0 3EA#0000000000000000
(1762729743.488911) can0 3EB#00000000FFCEFFCE
(1762729743.489056) can0 3ED#0000000000000000
(1762729743.489169) can0 474#0000000000000000
(1762729743.489433) can0 402#4F08D40904000200
(1762729743.494146) can0 2B1#8011801100000083
(1762729743.494266) can0 3B6#3201000000320500
(1762729743.494320) can0 3B6#330000000D000000
(1762729743.497912) can0 360#0168035B00000000
(1762729743.497989) can0 361#1049057A00000000
(1762729743.498119) can0 362#00250000FFCE0000
(1762729743.498235) can0 374#0000000000000000
(1762729743.498366) can0 3E4#0000000000000080
(1762729743.498488) can0 3E9#0000000003740000
(1762729743.498623) can0 3EC#0000000000000000
(1762729743.498732) can0 471#0CEB000003F50000
(1762729743.498859) can0 476#0000000000000000
(1762729743.498989) can0 6F4#0000000000000000
(1762729743.499804) can0 403#0200000000000000
(1762729743.503890) can0 2B1#8011801100000083
(1762729743.503940) can0 2BE#81007FFF00000000
(1762729743.504067) can0 3B6#330000000D000000
(1762729743.504180) can0 3B6#3201000000320500
(1762729743.508403) can0 3E5#000000000000001C
(1762729743.508504) can0 363#0000000000000000
(1762729743.508533) can0 364#131D000000000000
(1762729743.508655) can0 368#0011000000000000
(1762729743.508782) can0 375#0000000000000000
(1762729743.508894) can0 3EA#0000000000000000
(1762729743.509053) can0 3EB#00000000FFCEFFCE
(1762729743.509151) can0 3ED#0000000000000000
(1762729743.509273) can0 3EE#0000000000000000
(1762729743.509408) can0 470#001100000000FC00
(1762729743.509518) can0 6F0#0000000000000000
(1762729743.510462) can0 401#0000800000000000
(1762729743.512512) can0 100#0000000000000000
(1762729743.512617) can0 100#0100000000000000
(1762729743.512738) can0 100#0400000000000000
(1762729743.512864) can0 100#0200000000000000
(1762729743.512996) can0 100#0300000000000000
(1762729743.513120) can0 100#0500000000000000
(1762729743.513242) can0 100#0600000000000000
(1762729743.513368) can0 100#0700000000000000
(1762729743.513771) can0 2B1#8011801100000083
(1762729743.513888) can0 3B6#3201000000320500
(1762729743.514008) can0 3B6#330000000D000000
(1762729743.518018) can0 360#017F035100000000
(1762729743.518097) can0 361#1044058700000000
(1762729743.518244) can0 362#00270000FFCE0000
(1762729743.518338) can0 369#0000001F00000003
(1762729743.518463) can0 36A#0000000000000000
(1762729743.518589) can0 36B#0000000000000000
(1762729743.518712) can0 376#0000000000000000
(1762729743.518844) can0 3EC#0000000000000000
(1762729743.518965) can0 3EF#0000000000000000
(1762729743.519110) can0 471#0CEE000003F50000
(1762729743.519220) can0 6F1#0000000000000000
(1762729743.519339) can0 402#5508DC0904000200
(1762729743.523824) can0 2B1#8011801100000083
(1762729743.523937) can0 3B6#3201000000320500
(1762729743.524049) can0 3B6#330000000D000000
(1762729743.528194) can0 3E5#000000000000001C
(1762729743.528300) can0 364#12F3000000000000
(1762729743.528419) can0 36C#0000000000000000
(1762729743.528551) can0 36D#0000000000000000
(1762729743.528670) can0 36E#0000000000000000
(1762729743.528795) can0 3EA#0000000000000000
(1762729743.528921) can0 3EB#00000000FFCEFFCE
(1762729743.529066) can0 3ED#0000000000000000
(1762729743.529180) can0 472#0000000000000000
(1762729743.529298) can0 473#0000000008000000
(1762729743.529421) can0 6F2#0000000000000000
(1762729743.530114) can0 403#0200000000000000
(1762729743.533891) can0 2B1#8011801100000083
(1762729743.533997) can0 3B6#3201000000320500
(1762729743.534030) can0 3B6#330000000D000000
(1762729743.538187) can0 360#0188034500000000
(1762729743.538275) can0 361#103D059B00000000
(1762729743.538325) can0 362#00280000FFCE0000
(1762729743.538466) can0 36F#0000000000000000
(1762729743.538585) can0 370#0000000000000000
(1762729743.538713) can0 3E6#0000000000000000
(1762729743.538849) can0 3EC#0000000000000000
(1762729743.538966) can0 471#0CF7000003F50000
(1762729743.539087) can0 474#0000000000000000
(1762729743.539207) can0 477#FFFF000000000000
(1762729743.539325) can0 6F3#0DA80DA800000000
(1762729743.539926) can0 401#0000800000000000
(1762729743.543849) can0 2B1#8011801100000083
(1762729743.543922) can0 3B6#3201000000320500
(1762729743.544065) can0 3B6#330000000D000000
(1762729743.548861) can0 3E5#000000000000001C
(1762729743.548967) can0 364#1294000000000000
(1762729743.549096) can0 3E9#0000000003740000
(1762729743.549214) can0 3EA#0000000000000000
(1762729743.549333) can0 3EB#00000000FFCEFFCE
(1762729743.549465) can0 3ED#0000000000000000
(1762729743.549593) can0 402#5B08E10904000200
(1762729743.549719) can0 475#0000000000000000
(1762729743.549835) can0 476#0000000000000000
(1762729743.549959) can0 6F4#0000000000000000
(1762729743.550085) can0 6F7#000000000C450000
(1762729743.553857) can0 2B1#8011801100000083
(1762729743.553947) can0 2B3#100F0E0000000000
(1762729743.554066) can0 2BE#0000000000FFFFFF
(1762729743.554187) can0 3B6#3201000000320500
(1762729743.554227) can0 3B6#19
(1762729743.554362) can0 3B6#330000000D000000
(1762729743.559203) can0 403#0200000000000000
(1762729743.559387) can0 360#01A5033B00000000
(1762729743.559463) can0 361#103605B600000000
(1762729743.559596) can0 362#002B0000FFCE0000
(1762729743.559716) can0 363#0000000000000000
(1762729743.559832) can0 368#0011000000000000
(1762729743.559958) can0 3EC#0000000000000000
(1762729743.560087) can0 3EE#0000000000000000
(1762729743.560209) can0 470#001100000000FC00
(1762729743.560332) can0 471#0CFB000003F50000
(1762729743.560457) can0 6F6#0000000000000000
(1762729743.563840) can0 2B1#8011801100000084
(1762729743.563917) can0 3B6#3201000000320500
(1762729743.564059) can0 3B6#330000000D000000
(1762729743.564712) can0 37F#04B2000000000000
(1762729743.569121) can0 401#0000800000000000
(1762729743.569460) can0 3E5#000000000000001C
(1762729743.569574) can0 364#126B000000000000
(1762729743.569696) can0 369#0000000A00000003
(1762729743.569831) can0 36A#0000000000000000
(1762729743.569941) can0 36B#0000000000000000
(1762729743.570073) can0 371#0000000000000000
(1762729743.570191) can0 3EA#0000000000000000
(1762729743.570328) can0 3EB#00000000FFCEFFCE
(1762729743.570445) can0 3ED#0000000000000000
(1762729743.570573) can0 3EF#0000000000000000
(1762729743.570691) can0 469#0C2A000000000000
(1762729743.573868) can0 3B6#3201000000320500
(1762729743.573953) can0 2B1#8011801100000084
(1762729743.574049) can0 3B6#330000000D000000
(1762729743.578866) can0 402#6608EF0904000200
(1762729743.579744) can0 360#01CA033800000000
(1762729743.579856) can0 361#102C05CF00000000
(1762729743.579975) can0 362#002E0000FFCE0000
(1762729743.580101) can0 36C#0000000000000000
(1762729743.580232) can0 36D#0000000000000000
(1762729743.580353) can0 36E#0000000000000000
(1762729743.580468) can0 372#006B0000FC0B03F5
(1762729743.580597) can0 3EC#0000000000000000
(1762729743.580714) can0 471#0CF4000003F50000
(1762729743.580843) can0 472#0000000000000000
(1762729743.580969) can0 6F8#00000000000003E8
(1762729743.583807) can0 2B1#8011801100000084
(1762729743.583880) can0 3B6#3201000000320500
(1762729743.584029) can0 3B6#330000000D000000
(1762729743.589083) can0 403#0200000000000000
(1762729743.590356) can0 3E5#000000000000001C
(1762729743.590480) can0 364#1065000000000000
(1762729743.590604) can0 36F#0000000000000000
(1762729743.590734) can0 370#0000000000000000
(1762729743.590855) can0 373#0000000000000000
(1762729743.590979) can0 3E6#0000000000000000
(1762729743.591107) can0 3EA#0000000000000000
(1762729743.591229) can0 3EB#0000000000810081
(1762729743.591355) can0 3ED#0000000000000000
(1762729743.591484) can0 474#0000000000000000
(1762729743.593872) can0 3B6#3201000000320500
(1762729743.593950) can0 2B1#8011801100000085
(1762729743.594038) can0 3B6#330000000D000000
(1762729743.598946) can0 401#0000800000000000
(1762729743.600393) can0 360#01FA032B00000000
(1762729743.600507) can0 361#102105CF00000000
(1762729743.600615) can0 362#002E000000940000
(1762729743.600741) can0 374#0000000000000000
(1762729743.600860) can0 3E9#0000000003740000
(1762729743.600992) can0 3EC#0000000000000000
(1762729743.601112) can0 471#0CF4000003F50000
(1762729743.601229) can0 476#0000000000000000
(1762729743.601364) can0 6F4#0000000000000000
(1762729743.603796) can0 2B1#8011801100000085
(1762729743.603913) can0 2BE#01007FFF00000000
(1762729743.604024) can0 3B6#330000000D000000
(1762729743.604143) can0 3B6#3201000000320500
(1762729743.608651) can0 402#7908090A04000200
(1762729743.610816) can0 3E5#000000000000001C
(1762729743.610903) can0 363#0000000000000000
(1762729743.611058) can0 364#0F53000000000000
(1762729743.611151) can0 368#0011000000000000
(1762729743.611282) can0 375#0000000000000000
(1762729743.611405) can0 3EA#0000000000000000
(1762729743.611521) can0 3EB#0000000000AA00AA
(1762729743.611648) can0 3ED#0000000000000000
(1762729743.611773) can0 3EE#0000000000000000
(1762729743.611906) can0 470#001100000000FC00
(1762729743.613821) can0 2B1#8011801100000085
(1762729743.613943) can0 3B6#3201000000320500
(1762729743.614045) can0 3B6#330000000D000000
(1762729743.618596) can0 403#0200000000000000
(1762729743.622891) can0 360#0223031A00000000
(1762729743.622980) can0 361#101005F200000000
(1762729743.623045) can0 362#002F000000CC0000
(1762729743.623187) can0 369#0000001B00000003
(1762729743.623314) can0 36A#0000000000000000
(1762729743.623434) can0 36B#0000000000000000
(1762729743.623561) can0 376#0000000000000000
(1762729743.623691) can0 3EC#0000000000000000
(1762729743.623802) can0 3B6#3201000000320500
(1762729743.623919) can0 2B1#8011801100000087
(1762729743.624046) can0 3B6#330000000D000000
(1762729743.624169) can0 3EF#0000000000000000
(1762729743.624291) can0 471#0CF8000003F50000
(1762729743.628869) can0 401#0000800000000000
(1762729743.633556) can0 3E5#000000000000001C
(1762729743.633635) can0 364#0EDE000000000000
(1762729743.633776) can0 36C#0000000000000000
(1762729743.633858) can0 2B1#8011801100000087
(1762729743.633980) can0 36D#0000000000000000
(1762729743.634103) can0 36E#0000000000000000
(1762729743.634239) can0 3B6#3201000000320500
(1762729743.634344) can0 3B6#330000000D000000
(1762729743.634483) can0 3EA#0000000000000000
(1762729743.634596) can0 3EB#0000000000DB00DB
(1762729743.634723) can0 3ED#0000000000000000
(1762729743.634841) can0 472#0000000000000000
(1762729743.634970) can0 473#0000000008000000
(1762729743.638497) can0 402#9E08320A04000200
(1762729743.643371) can0 360#023C030D00000000
(1762729743.643460) can0 361#1008061500000000
(1762729743.643592) can0 362#0031000000E20000
(1762729743.643726) can0 36F#0000000000000000
(1762729743.643827) can0 2B1#8011801100000087
(1762729743.643956) can0 370#0000000000000000
(1762729743.644072) can0 3B6#3201000000320500
(1762729743.644199) can0 3B6#330000000D000000
(1762729743.644336) can0 3E6#0000000000000000
(1762729743.644452) can0 3EC#0000000000000000
(1762729743.644572) can0 471#0CF3000003F50000
(1762729743.644704) can0 474#0000000000000000
(1762729743.644822) can0 477#FFFF000000000000
(1762729743.648499) can0 403#0200000000000000
(1762729743.650788) can0 60B#221710009600
(1762729743.653830) can0 2B1#8011801100000088
(1762729743.653907) can0 2B3#100F0E0000000000
(1762729743.654065) can0 2BE#8000000000FFFFFF
(1762729743.654153) can0 3B6#3201000000320500
(1762729743.654275) can0 3B6#330000000D000000
(1762729743.654895) can0 3E5#000000000000001C
(1762729743.655009) can0 364#0D80000000000000
(1762729743.655132) can0 3E9#0000000003740000
(1762729743.655252) can0 3EA#0000000000000000
(1762729743.655370) can0 3EB#0000000000E900E9
(1762729743.655505) can0 3ED#0000000000000000
(1762729743.655633) can0 476#0000000000000000
(1762729743.655747) can0 6F4#0000000000000000
(1762729743.655870) can0 6F7#000000000C450000
(1762729743.658321) can0 401#0000800000000000
(1762729743.661577) can0 60B#2200180200
(1762729743.663815) can0 3B6#3201000000320500
(1762729743.663936) can0 2B1#8011801100000088
(1762729743.664033) can0 3B6#330000000D000000
(1762729743.667330) can0 360#025902EC00000000
(1762729743.667426) can0 361#0FF5064200000000
(1762729743.667479) can0 362#0030000000FA0000
(1762729743.667626) can0 363#0000000000000000
(1762729743.667738) can0 368#0011000000000000
(1762729743.667853) can0 3E0#0DEA0C4500000D84
(1762729743.667980) can0 3EC#0000000000000000
(1762729743.668110) can0 3EE#0000000000000000
(1762729743.668227) can0 470#001100000000FC00
(1762729743.668346) can0 402#B5084E0A04000200
(1762729743.668463) can0 471#0D06000003F50000
(1762729743.668899) can0 37F#04B2000000000000
(1762729743.671808) can0 60B#220018030000
(1762729743.673798) can0 2B1#8011801100000088
(1762729743.673914) can0 3B6#3201000000320500
(1762729743.674028) can0 3B6#330000000D000000
(1762729743.678664) can0 403#0200000000000000
(1762729743.680092) can0 3E5#000000000000001C
(1762729743.680183) can0 364#0DF0000000000000
(1762729743.680312) can0 369#0000001100000003
(1762729743.680461) can0 36A#0000000000000000
(1762729743.680595) can0 36B#0000000000000000
(1762729743.680664) can0 371#0000000000000000
(1762729743.680817) can0 3E1#0000000000000000
(1762729743.680940) can0 3EA#0000000000000000
(1762729743.681056) can0 3EB#0000000000F800F8
(1762729743.681186) can0 3ED#0000000000000000
(1762729743.681318) can0 3EF#0000000000000000
(1762729743.683792) can0 3B6#3201000000320500
(1762729743.683898) can0 2B1#8011801100000088
(1762729743.684019) can0 3B6#330000000D000000
(1762729743.685641) can0 60B#220018050000
(1762729743.688318) can0 401#0000800000000000
(1762729743.692963) can0 360#029202E200000000
(1762729743.693082) can0 361#0FE7067C00000000
(1762729743.693187) can0 362#0036000000F40000
(1762729743.693317) can0 36C#0000000000000000
(1762729743.693442) can0 36D#0000000000000000
(1762729743.693565) can0 36E#0000000000000000
(1762729743.693687) can0 372#006E0000FC0B03F5
(1762729743.693811) can0 3E2#03E80108FFFF0000
(1762729743.693929) can0 2B1#8011801100000088
(1762729743.694041) can0 3B6#3201000000320500
(1762729743.694167) can0 3B6#330000000D000000
(1762729743.694295) can0 3EC#0000000000000000
(1762729743.694413) can0 471#0D05000003F50000
(1762729743.694539) can0 472#0000000000000000
(1762729743.698156) can0 402#C3085E0A04000200
(1762729743.702902) can0 3E5#000000000000001C
(1762729743.702999) can0 364#0D5A000000000000
(1762729743.703130) can0 36F#0000000000000000
(1762729743.703247) can0 370#0000000000000000
(1762729743.703383) can0 373#0000000000000000
(1762729743.703501) can0 3E3#0000000000000000
(1762729743.703626) can0 3E6#0000000000000000
(1762729743.703758) can0 3EA#0000000000000000
(1762729743.703877) can0 2B1#8011801100000089
(1762729743.704000) can0 2BE#81007FFF00000000
(1762729743.704116) can0 3B6#330000000D000000
(1762729743.704244) can0 3B6#3201000000320500
(1762729743.704362) can0 3EB#0000000000F200F2
(1762729743.704485) can0 3ED#0000000000000000
(1762729743.704617) can0 474#0000000000000000
(1762729743.708394) can0 403#0200000000000000
(1762729743.713627) can0 360#02AE02CE00000000
(1762729743.713715) can0 361#0FD606BD00000000
(1762729743.713835) can0 2B1#801180110000008A
(1762729743.713960) can0 362#0036000000EE0000
(1762729743.714083) can0 374#0000000000000000
(1762729743.714203) can0 3B6#3201000000320500
(1762729743.714323) can0 3B6#330000000D000000
(1762729743.714451) can0 3E4#0000000100000000
(1762729743.714574) can0 3E9#0000000003740000
(1762729743.714695) can0 3EC#0000000000000000
(1762729743.714819) can0 471#0D0C000003F50000
(1762729743.714941) can0 476#0000000000000000
(1762729743.715073) can0 6F4#0000000000000000
(1762729743.718215) can0 401#0000800000000000
(1762729743.723814) can0 2B1#801180110000008A
(1762729743.723904) can0 3B6#3201000000320500
(1762729743.724032) can0 3B6#330000000D000000
(1762729743.724690) can0 3E5#000000000000001C
(1762729743.724790) can0 363#0000000000000000
(1762729743.724938) can0 364#0C8B000000000000
(1762729743.725058) can0 368#0011000000000000
(1762729743.725241) can0 375#0000000000000000
(1762729743.725282) can0 3EA#0000000000000000
(1762729743.725414) can0 3EB#0000000000EC00EC
(1762729743.725542) can0 3ED#0000000000000000
(1762729743.725658) can0 3EE#0000000000000000
(1762729743.725802) can0 470#001100000000FC00
(1762729743.725910) can0 6F0#0000000000000000
(1762729743.727934) can0 402#C808680A04000200
(1762729743.733848) can0 2B1#801180110000008A
(1762729743.733925) can0 3B6#3201000000320500
(1762729743.734057) can0 3B6#330000000D000000
(1762729743.735162) can0 360#02C502C300000000
(1762729743.735295) can0 361#0FC606BD00000000
(1762729743.735385) can0 362#0036000000EA0000
(1762729743.735519) can0 369#0000000400000003
(1762729743.735638) can0 36A#0000000000000000
(1762729743.735760) can0 36B#0000000000000000
(1762729743.735886) can0 376#0000000000000000
(1762729743.736009) can0 3EC#0000000000000000
(1762729743.736137) can0 3EF#0000000000000000
(1762729743.736259) can0 471#0D0C000003F50000
(1762729743.736383) can0 6F1#0000000000000000
(1762729743.737888) can0 403#0200000000000000
(1762729743.743834) can0 2B1#8011801100000097
(1762729743.743967) can0 3B6#3201000000320500
(1762729743.744057) can0 3B6#330000000F000000
(1762729743.745393) can0 3E5#000000000000001C
(1762729743.745509) can0 364#0C1C000000000000
(1762729743.745625) can0 36C#0000000000000000
(1762729743.745741) can0 36D#0000000000000000
(1762729743.745865) can0 36E#0000000000000000
(1762729743.746000) can0 3EA#0000000000000000
(1762729743.746117) can0 3EB#0000000000E800E8
(1762729743.746254) can0 3ED#0000000000000000
(1762729743.746369) can0 472#0000000000000000
(1762729743.746491) can0 473#0000000008000000
(1762729743.746622) can0 6F2#0000000000000000
(1762729743.748343) can0 401#0000800081000000
(1762729743.753818) can0 2B1#801180110000009A
(1762729743.753934) can0 2B3#100F0E0000000000
(1762729743.754042) can0 2BE#0000000000FFFFFF
(1762729743.754164) can0 3B6#3201000000320500
(1762729743.754290) can0 3B6#330000000F000000
(1762729743.755718) can0 360#02E902B300000000
(1762729743.755806) can0 361#0FB1070000000000
(1762729743.755890) can0 362#0036000000E50000
(1762729743.756024) can0 36F#0000000000000000
(1762729743.756141) can0 370#0000000000000000
(1762729743.756264) can0 3E6#0000000000000000
(1762729743.756399) can0 3EC#0000000000000000
(1762729743.756517) can0 471#0D06000003F50000
(1762729743.756648) can0 474#0000000000000000
(1762729743.756766) can0 477#FFFF000000000000
(1762729743.756881) can0 6F3#0DA80DA800000000
(1762729743.757759) can0 402#7209300B04000200
(1762729743.763834) can0 2B1#801180110000009A
(1762729743.763954) can0 3B6#3201000000320500
(1762729743.764064) can0 3B6#330000000F000000
(1762729743.767560) can0 3E5#000000000000001C
(1762729743.767637) can0 364#0B38000000000000
(1762729743.767777) can0 3E9#0000000003740000
(1762729743.767893) can0 3EA#0000000000000000
(1762729743.768018) can0 3EB#0000000000E100E1
(1762729743.768144) can0 3ED#0000000000000000
(1762729743.768263) can0 475#0000000000000000
(1762729743.768401) can0 476#0000000000000000
(1762729743.768519) can0 6F4#0000000000000000
(1762729743.768646) can0 6F7#000000000C450000
(1762729743.768778) can0 37F#04B4000000000000
(1762729743.769425) can0 403#0200000000000000
(1762729743.773824) can0 2B1#801180110000009C
(1762729743.773920) can0 3B6#3201000000320500
(1762729743.774042) can0 3B6#330000000F000000
(1762729743.777636) can0 401#000080000B000000
(1762729743.777720) can0 360#030702A000000000
(1762729743.777848) can0 361#0FA4075000000000
(1762729743.777967) can0 362#0036000000E00000
(1762729743.778092) can0 363#0000000000000000
(1762729743.778221) can0 368#0011000000000000
(1762729743.778348) can0 3EC#0000000000000000
(1762729743.778490) can0 3EE#0000000000000000
(1762729743.778592) can0 470#001100000000FC00
(1762729743.778722) can0 471#0D05000003F50000
(1762729743.778846) can0 6F6#0000000000000000
(1762729743.783867) can0 2B1#801180110000009D
(1762729743.783942) can0 3B6#3201000000320500
(1762729743.784099) can0 3B6#330000000F000000
(1762729743.787534) can0 402#340A1B0C04000200
(1762729743.788023) can0 3E5#000000000000001C
(1762729743.788146) can0 364#0AA2000000000000
(1762729743.788274) can0 369#0000001E00000003
(1762729743.788397) can0 36A#0000000000000000
(1762729743.788520) can0 36B#0000000000000000
(1762729743.788647) can0 371#0000000000000000
(1762729743.788773) can0 3EA#0000000000000000
(1762729743.788904) can0 3EB#0000000000DE00DE
(1762729743.789019) can0 3ED#0000000000000000
(1762729743.789148) can0 3EF#0000000000000000
(1762729743.789271) can0 469#0C2B000000000000
(1762729743.793850) can0 2B1#801180110000009E
(1762729743.793947) can0 3B6#3201000000320500
(1762729743.794071) can0 3B6#330000000F000000
(1762729743.797784) can0 403#0200000000000000
(1762729743.798220) can0 360#031B029400000000
(1762729743.798339) can0 361#0F9807A800000000
(1762729743.798440) can0 362#0033000000DD0000
(1762729743.798569) can0 36C#0000000000000000
(1762729743.798695) can0 36D#0000000000000000
(1762729743.798820) can0 36E#0000000000000000
(1762729743.798937) can0 372#00760000FC0B03F5
(1762729743.799077) can0 3EC#0000000000000000
(1762729743.799186) can0 471#0D03000003F50000
(1762729743.799316) can0 472#0000000000000000
(1762729743.799437) can0 6F8#00000000000003E8
(1762729743.803908) can0 2B1#801180110000009F
(1762729743.804003) can0 2BE#01007FFF00000000
(1762729743.804054) can0 3B6#330000000F000000
(1762729743.804190) can0 3B6#3201000000320500
(1762729743.807536) can0 401#0000800000000000
(1762729743.808493) can0 3E5#000000000000001C
(1762729743.808583) can0 364#0A08000000000000
(1762729743.808720) can0 36F#0000000000000000
(1762729743.808816) can0 370#0000000000000000
(1762729743.808949) can0 373#0000000000000000
(1762729743.809108) can0 3E6#0000000000000000
(1762729743.809189) can0 3EA#0000000000000000
(1762729743.809330) can0 3EB#0000000000DC00DC
(1762729743.809445) can0 3ED#0000000000000000
(1762729743.809571) can0 474#0000000000000000
(1762729743.813841) can0 2B1#80118011000000A0
(1762729743.813945) can0 3B6#3201000000320500
(1762729743.814066) can0 3B6#3300000010000000
(1762729743.817332) can0 402#B90AB50C04000200
(1762729743.818583) can0 360#032A028300000000
(1762729743.818696) can0 361#0F8D080100000000
(1762729743.818823) can0 362#0031000000DC0000
(1762729743.818932) can0 374#0000000000000000
(1762729743.819074) can0 3E9#0000000003740000
(1762729743.819187) can0 3EC#0000000000000000
(1762729743.819312) can0 471#0D07000003F50000
(1762729743.819429) can0 476#0000000000000000
(1762729743.819564) can0 6F4#0000000000000000
(1762729743.823815) can0 2B1#80118011000000A1
(1762729743.823930) can0 3B6#3201000000320500
(1762729743.824040) can0 3B6#3300000010000000
(1762729743.827580) can0 403#0200000000000000
(1762729743.828547) can0 3E5#000000000000001C
(1762729743.828666) can0 363#0000000000000000
(1762729743.828784) can0 364#097D000000000000
(1762729743.828909) can0 368#0011000000000000
(1762729743.829052) can0 375#0000000000000000
(1762729743.829161) can0 3EA#0000000000000000
(1762729743.829292) can0 3EB#0000000000DC00DC
(1762729743.829414) can0 3ED#0000000000000000
(1762729743.829539) can0 3EE#0000000000000000
(1762729743.829670) can0 470#001100000000FC00
(1762729743.833864) can0 2B1#80118011000000A0
(1762729743.833931) can0 3B6#3201000000320500
(1762729743.834068) can0 3B6#3300000010000000
(1762729743.837422) can0 401#0000800000000000
(1762729743.839256) can0 360#0335027700000000
(1762729743.839344) can0 361#0F83086300000000
(1762729743.839415) can0 362#0031000000DC0000
(1762729743.839621) can0 369#0000001300000003
(1762729743.839662) can0 36A#0000000000000000
(1762729743.839811) can0 36B#0000000000000000
(1762729743.839942) can0 376#0000000000000000
(1762729743.840067) can0 3EC#0000000000000000
(1762729743.840183) can0 3EF#0000000000000000
(1762729743.840311) can0 471#0D0C000003F50000
(1762729743.843823) can0 2B1#80118011000000A1
(1762729743.843909) can0 3B6#3201000000320500
(1762729743.844035) can0 3B6#3300000010000000
(1762729743.847244) can0 402#FA0A000D04000200
(1762729743.850921) can0 3E5#000000000000001C
(1762729743.851026) can0 364#08D1000000000000
(1762729743.851143) can0 36C#0000000000000000
(1762729743.851262) can0 36D#0000000000000000
(1762729743.851385) can0 36E#0000000000000000
(1762729743.851512) can0 3EA#0000000000000000
(1762729743.851638) can0 3EB#0000000000DC00DC
(1762729743.851767) can0 3ED#0000000000000000
(1762729743.851887) can0 472#0000000000000000
(1762729743.852010) can0 473#0000000008000000
(1762729743.853864) can0 2B1#80118011000000A1
(1762729743.853942) can0 2B3#100F0E0000000000
(1762729743.854098) can0 2BE#8000000000FFFFFF
(1762729743.854191) can0 3B6#3201000000320500
(1762729743.854314) can0 3B6#3300000010000000
(1762729743.857086) can0 403#0200000000000000
(1762729743.859640) can0 60C#221710009600
(1762729743.861502) can0 360#0339026900000000
(1762729743.861623) can0 361#0F73086300000000
(1762729743.861662) can0 362#002E000000DC0000
(1762729743.861708) can0 36F#0000000000000000
(1762729743.861880) can0 370#0000000000000000
(1762729743.862028) can0 3E6#0000000000000000
(1762729743.862130) can0 3EC#0000000000000000
(1762729743.862228) can0 471#0D0C000003F50000
(1762729743.862421) can0 474#0000000000000000
(1762729743.862471) can0 477#FFFF000000000000
(1762729743.863847) can0 2B1#80118011000000A1
(1762729743.863949) can0 3B6#3201000000320500
(1762729743.864071) can0 3B6#3300000010000000
(1762729743.867315) can0 401#0000800000000000
(1762729743.869687) can0 60C#2200180200
(1762729743.871387) can0 3E5#000000000000001C
(1762729743.871461) can0 364#086D000000000000
(1762729743.871596) can0 3E9#0000000003740000
(1762729743.871728) can0 3EA#0000000000000000
(1762729743.871845) can0 3EB#0000000000DC00DC
(1762729743.871977) can0 3ED#0000000000000000
(1762729743.872096) can0 476#0000000000000000
(1762729743.872228) can0 6F4#0000000000000000
(1762729743.872353) can0 6F7#000000000C450000
(1762729743.873098) can0 37F#04B3000000000000
(1762729743.873802) can0 2B1#801180110000009F
(1762729743.873920) can0 3B6#3201000000320500
(1762729743.874039) can0 3B6#330000000F000000
(1762729743.876938) can0 402#120B1B0D04000200
(1762729743.879654) can0 60C#220018030000
(1762729743.881503) can0 360#0335025D00000000
(1762729743.881598) can0 361#0F6C08C400000000
(1762729743.881729) can0 362#002D000000DC0000
(1762729743.881858) can0 363#0000000000000000
(1762729743.881986) can0 368#0011000000000000
(1762729743.882089) can0 3E0#0DEB0C4500000D87
(1762729743.882221) can0 3EC#0000000000000000
(1762729743.882347) can0 3EE#0000000000000000
(1762729743.882466) can0 470#001100000000FC00
(1762729743.882587) can0 471#0D0C000003F50000
(1762729743.883853) can0 2B1#80118011000000A0
(1762729743.883955) can0 3B6#3201000000320500
(1762729743.884067) can0 3B6#3300000010000000
(1762729743.886975) can0 403#0200000000000000
(1762729743.890425) can0 60C#220018050000
(1762729743.891753) can0 3E5#000000000000001C
(1762729743.891847) can0 364#07FD000000000000
(1762729743.891975) can0 369#0000000700000003
(1762729743.892112) can0 36A#0000000000000000
(1762729743.892226) can0 36B#0000000000000000
(1762729743.892351) can0 371#0000000000000000
(1762729743.892478) can0 3E1#0000000000000000
(1762729743.892601) can0 3EA#0000000000000000
(1762729743.892727) can0 3EB#0000000000DC00DC
(1762729743.892857) can0 3ED#0000000000000000
(1762729743.892979) can0 3EF#0000000000000000
