(1762729611.992021) can0 401#0000808080000000
(1762729612.001961) can0 402#0400040004000200
(1762729612.012046) can0 403#0200000000000000
(1762729612.021964) can0 401#0000808080000000
(1762729612.031728) can0 402#0400040004000200
(1762729612.041931) can0 403#0200000000000000
(1762729612.051780) can0 401#0000808080000000
(1762729612.061584) can0 402#0400040004000200
(1762729612.071438) can0 403#0200000000000000
(1762729612.081641) can0 401#0000808080000000
(1762729612.091387) can0 402#0400040004000200
(1762729612.101353) can0 403#0200000000000000
(1762729612.111160) can0 401#0000808080000000
(1762729612.121251) can0 402#0400040004000200
(1762729612.131275) can0 403#0200000000000000
(1762729612.141066) can0 401#0000808080000000
(1762729612.150894) can0 402#0400040004000200
(1762729612.161123) can0 403#0200000000000000
(1762729612.171024) can0 401#0000808080000000
(1762729612.180710) can0 402#0400040004000200
(1762729612.190727) can0 403#0200000000000000
(1762729612.200852) can0 401#0000808080000000
(1762729612.210586) can0 402#0400040004000200
(1762729612.220513) can0 403#0200000000000000
(1762729612.230387) can0 401#0000808080000000
(1762729612.240370) can0 402#0400040004000200
(1762729612.250411) can0 403#0200000000000000
(1762729612.260363) can0 401#0000808080000000
(1762729612.270080) can0 402#0400040004000200
(1762729612.280394) can0 403#0200000000000000
(1762729612.290240) can0 401#0000808080000000
(1762729612.299907) can0 402#0400040004000200
(1762729612.309929) can0 403#0200000000000000
(1762729612.320053) can0 401#0000808080000000
(1762729612.329765) can0 402#0400040004000200
(1762729612.339724) can0 403#0200000000000000
(1762729612.349581) can0 401#0000808080000000
(1762729612.359539) can0 402#0400040004000200
(1762729612.369647) can0 403#0200000000000000
(1762729612.379442) can0 401#0000808080000000
(1762729612.389271) can0 402#0400040004000200
(1762729612.399502) can0 403#0200000000000000
(1762729612.409471) can0 401#0000808080000000
(1762729612.419055) can0 402#0400040004000200
(1762729612.429122) can0 403#0200000000000000
(1762729612.439248) can0 401#0000808080000000
(1762729612.448854) can0 402#0400040004000200
(1762729612.458941) can0 403#0200000000000000
(1762729612.468808) can0 401#0000808080000000
(1762729612.478682) can0 402#0400040004000200
(1762729612.488814) can0 403#0200000000000000
(1762729612.498626) can0 401#0000808080000000
(1762729612.508453) can0 402#0400040004000200
(1762729612.518733) can0 403#0200000000000000
(1762729612.528542) can0 401#0000808080000000
(1762729612.538261) can0 402#0400040004000200
(1762729612.548296) can0 403#0200000000000000
(1762729612.558435) can0 401#0000808080000000
(1762729612.568189) can0 402#0400040004000200
(1762729612.578102) can0 403#0200000000000000
(1762729612.587943) can0 401#0000808080000000
(1762729612.597949) can0 402#0400040004000200
(1762729612.608000) can0 403#0200000000000000
(1762729612.617922) can0 401#0000808080000000
(1762729612.627675) can0 402#0400040004000200
(1762729612.637925) can0 403#0200000000000000
(1762729612.647723) can0 401#0000808080000000
(1762729612.657449) can0 402#0400040004000200
(1762729612.667496) can0 403#0200000000000000
(1762729612.677625) can0 401#0000808080000000
(1762729612.687250) can0 402#0400040004000200
(1762729612.697302) can0 403#0200000000000000
(1762729612.707131) can0 401#0000808080000000
(1762729612.717136) can0 402#0400040004000200
(1762729612.727172) can0 403#0200000000000000
(1762729612.737048) can0 401#0000808080000000
(1762729612.746911) can0 402#0400040004000200
(1762729612.757142) can0 403#0200000000000000
(1762729612.766921) can0 401#0000808080000000
(1762729612.776642) can0 402#0400040004000200
(1762729612.786676) can0 403#0200000000000000
(1762729612.796827) can0 401#0000808080000000
(1762729612.806469) can0 402#0400040004000200
(1762729612.816484) can0 403#0200000000000000
(1762729612.826324) can0 401#0000808080000000
(1762729612.836343) can0 402#0400040004000200
(1762729612.846379) can0 403#0200000000000000
(1762729612.856344) can0 401#0000808080000000
(1762729612.866064) can0 402#0400040004000200
(1762729612.876281) can0 403#0200000000000000
(1762729612.886110) can0 401#0000808080000000
(1762729612.895833) can0 402#0400040004000200
(1762729612.905858) can0 403#0200000000000000
(1762729612.916060) can0 401#0000808080000000
(1762729612.925664) can0 402#0400040004000200
(1762729612.935672) can0 403#0200000000000000
(1762729612.945516) can0 401#0000808080000000
(1762729612.955518) can0 402#0400040004000200
(1762729612.965574) can0 403#0200000000000000
(1762729612.975434) can0 401#0000808080000000
(1762729612.985238) can0 402#0400040004000200
(1762729612.995481) can0 403#0200000000000000
(1762729613.005301) can0 401#0000808080000000
(1762729613.015022) can0 402#0400040004000200
(1762729613.025054) can0 403#0200000000000000
(1762729613.035308) can0 401#0000808080000000
(1762729613.044858) can0 402#0400040004000200
(1762729613.054872) can0 403#0200000000000000
(1762729613.064707) can0 401#0000808080000000
(1762729613.074712) can0 402#0400040004000200
(1762729613.084774) can0 403#0200000000000000
(1762729613.094627) can0 401#0000808080000000
(1762729613.104420) can0 402#0400040004000200
(1762729613.114672) can0 403#0200000000000000
(1762729613.124486) can0 401#0000808080000000
(1762729613.134206) can0 402#0400040004000200
(1762729613.144298) can0 403#0200000000000000
(1762729613.154398) can0 401#0000808080000000
(1762729613.164020) can0 402#0400040004000200
(1762729613.174152) can0 403#0200000000000000
(1762729613.183899) can0 401#0000808080000000
(1762729613.193913) can0 402#0400040004000200
(1762729613.203965) can0 403#0200000000000000
(1762729613.213792) can0 401#0000808080000000
(1762729613.223691) can0 402#0400040004000200
(1762729613.233880) can0 403#0200000000000000
(1762729613.243676) can0 401#0000808080000000
(1762729613.253404) can0 402#0400040004000200
(1762729613.263458) can0 403#0200000000000000
(1762729613.273591) can0 401#0000808080000000
(1762729613.283211) can0 402#0400040004000200
(1762729613.293330) can0 403#0200000000000000
(1762729613.303091) can0 401#0000808080000000
(1762729613.313089) can0 402#0400040004000200
(1762729613.323247) can0 403#0200000000000000
(1762729613.333008) can0 401#0000808080000000
(1762729613.342933) can0 402#0400040004000200
(1762729613.353032) can0 403#0200000000000000
(1762729613.362942) can0 401#0000808080000000
(1762729613.372606) can0 402#0400040004000200
(1762729613.382563) can0 403#0200000000000000
(1762729613.392815) can0 401#0000808080000000
(1762729613.402397) can0 402#0400040004000200
(1762729613.412505) can0 403#0200000000000000
(1762729613.422284) can0 401#0000808080000000
(1762729613.432181) can0 402#0400040004000200
(1762729613.442440) can0 403#0200000000000000
(1762729613.452156) can0 401#0000808080000000
(1762729613.462048) can0 402#0400040004000200
(1762729613.472234) can0 403#0200000000000000
(1762729613.482148) can0 401#0000808080000000
(1762729613.688102) can0 401#0000800180000000
(1762729613.688204) can0 438#037F1013AAAAAAAA
(1762729613.688332) can0 403#0200000000000000
(1762729613.688449) can0 402#CB01F70204000200
(1762729613.688896) can0 403#0200000000000000
(1762729613.690547) can0 401#0000800000000000
(1762729613.700392) can0 402#F601AF0B04000200
(1762729613.710633) can0 403#0200000000000000
(1762729613.720445) can0 401#0000800000000000
(1762729613.730212) can0 402#F101B20B04000200
(1762729613.740135) can0 403#0200000000000000
(1762729613.750414) can0 401#0000800000000000
(1762729613.759957) can0 402#ED01B40B04000200
(1762729613.770008) can0 403#0200000000000000
(1762729613.779863) can0 401#0000800000000000
(1762729613.786996) can0 2B3#000F010100000000
(1762729613.789748) can0 402#EB01B30B04000200
(1762729613.799929) can0 403#0200000000000000
(1762729613.809737) can0 401#0000800000000000
(1762729613.819629) can0 402#EA01B40B04000200
(1762729613.829818) can0 403#0200000000000000
(1762729613.839635) can0 401#0000800000000000
(1762729613.849388) can0 402#E701B30B04000200
(1762729613.859314) can0 403#0200000000000000
(1762729613.869549) can0 401#0000800000000000
(1762729613.879159) can0 402#E701B40B04000200
(1762729613.887075) can0 2B3#000F010100000000
(1762729613.889238) can0 403#0200000000000000
(1762729613.899133) can0 401#0000800000000000
(1762729613.908952) can0 402#E701B30B04000200
(1762729613.919147) can0 403#0200000000000000
(1762729613.928944) can0 401#0000800000000000
(1762729613.938739) can0 402#E701B30B04000200
(1762729613.944034) can0 2B1#8011801100000000
(1762729613.944157) can0 2B3#100F0E0000000000
(1762729613.944285) can0 2BE#0000000000FFFFFF
(1762729613.944405) can0 3B6#3202000000320300
(1762729613.944453) can0 3B6#19
(1762729613.944587) can0 3B6#3300000000000000
(1762729613.949024) can0 403#0200000000000000
(1762729613.952973) can0 2B1#8011801100000091
(1762729613.953108) can0 3B6#3201000000320500
(1762729613.953173) can0 3B6#330000000E000000
(1762729613.958858) can0 401#0000800000000000
(1762729613.962896) can0 2B1#8011801100000091
(1762729613.962997) can0 3B6#3201000000320500
(1762729613.963116) can0 3B6#330000000E000000
(1762729613.968559) can0 402#E701B30B04000200
(1762729613.972846) can0 2B1#8011801100000091
(1762729613.972960) can0 3B6#3201000000320500
(1762729613.973076) can0 3B6#330000000E000000
(1762729613.978482) can0 403#0200000000000000
(1762729613.982922) can0 2B1#8011801100000091
(1762729613.983051) can0 3B6#3201000000320500
(1762729613.983122) can0 3B6#330000000E000000
(1762729613.988734) can0 401#0000800000000000
(1762729613.992825) can0 3B6#3201000000320500
(1762729613.992935) can0 2B1#8011801100000091
(1762729613.993060) can0 2BE#01007FFF00000000
(1762729613.993182) can0 3B6#330000000E000000
(1762729613.998333) can0 402#E701B30B04000200
(1762729614.002962) can0 2B1#8011801100000091
(1762729614.003080) can0 3B6#3201000000320500
(1762729614.003137) can0 3B6#330000000E000000
(1762729614.006597) can0 3E5#000000000000001C
(1762729614.006688) can0 364#0000000000000000
(1762729614.006815) can0 369#0000000000000000
(1762729614.006939) can0 36A#0000000000000000
(1762729614.007063) can0 36B#0000000000000000
(1762729614.007188) can0 371#0000000000000000
(1762729614.007314) can0 3E1#0000000000000000
(1762729614.007439) can0 3EA#0000000000000000
(1762729614.007562) can0 3EB#00000000FFCEFFCE
(1762729614.007690) can0 3ED#0000000000000000
(1762729614.007816) can0 3EF#0000000000000000
(1762729614.008132) can0 60A#221710009600
(1762729614.008774) can0 403#0200000000000000
(1762729614.009504) can0 702#0000000000000000
(1762729614.012860) can0 2B1#8011801100000091
(1762729614.012981) can0 3B6#3201000000320500
(1762729614.013101) can0 3B6#330000000E000000
(1762729614.018138) can0 360#000003D600000000
(1762729614.018249) can0 361#03F5046F00000000
(1762729614.018302) can0 362#00000000FFCE0000
(1762729614.018418) can0 36C#0000000000000000
(1762729614.018550) can0 36D#0000000000000000
(1762729614.018655) can0 36E#0000000000000000
(1762729614.018792) can0 372#009A0000FC0B03F5
(1762729614.018907) can0 3E2#0000000000000000
(1762729614.019057) can0 3EC#0000000000000000
(1762729614.019135) can0 471#001D000003F50000
(1762729614.019305) can0 472#0000000000000000
(1762729614.019626) can0 37F#04C0000000000000
(1762729614.020287) can0 401#0000800000000000
(1762729614.021563) can0 60A#2200180200
(1762729614.022934) can0 3B6#3201000000320500
(1762729614.023033) can0 2B1#8011801100000091
(1762729614.023090) can0 3B6#330000000E000000
(1762729614.028152) can0 402#E701B20B04000200
(1762729614.028816) can0 3E5#000000000000001C
(1762729614.028934) can0 364#208C000000000000
(1762729614.029052) can0 36F#0000000000000000
(1762729614.029181) can0 370#0000000000000000
(1762729614.029309) can0 373#0000000000000000
(1762729614.029428) can0 3E3#0000000000000000
(1762729614.029556) can0 3E6#0000000000000000
(1762729614.029685) can0 3EA#0000000000000000
(1762729614.029802) can0 3EB#00000000FFCEFFCE
(1762729614.029933) can0 3ED#0000000000000000
(1762729614.030062) can0 474#0000000000000000
(1762729614.032078) can0 60A#220018030000
(1762729614.032902) can0 2B1#8011801100000091
(1762729614.032982) can0 3B6#3201000000320500
(1762729614.033139) can0 3B6#330000000E000000
(1762729614.038335) can0 403#0200000000000000
(1762729614.038776) can0 360#000003D900000000
(1762729614.038886) can0 361#03F5046C00000000
(1762729614.039005) can0 362#00000000FFCE0000
(1762729614.039139) can0 374#0000000000000000
(1762729614.039259) can0 3E4#0001000100000080
(1762729614.039388) can0 3E9#00000000036B0000
(1762729614.039512) can0 3EC#0000000000000000
(1762729614.039639) can0 471#001C000003F50000
(1762729614.039758) can0 476#0000000000000000
(1762729614.039880) can0 6F4#0000000000000000
(1762729614.042886) can0 2B1#8011801100000091
(1762729614.042972) can0 2B3#100F0E0000000000
(1762729614.043103) can0 2BE#8000000000FFFFFF
(1762729614.043223) can0 3B6#3201000000320500
(1762729614.043358) can0 3B6#330000000E000000
(1762729614.043516) can0 60A#220018050000
(1762729614.048119) can0 401#0000800000000000
(1762729614.049445) can0 3E5#000000000000001C
(1762729614.049559) can0 363#0000000000000000
(1762729614.049680) can0 364#2084000000000000
(1762729614.049803) can0 368#0011000000000000
(1762729614.049927) can0 375#0000000000000000
(1762729614.050051) can0 3EA#0000000000000000
(1762729614.050176) can0 3EB#00000000FFCEFFCE
(1762729614.050302) can0 3ED#0000000000000000
(1762729614.050427) can0 3EE#0000000000000000
(1762729614.050550) can0 470#001100000000FC00
(1762729614.050678) can0 6F0#0000000000000000
(1762729614.052870) can0 2B1#8011801100000091
(1762729614.052978) can0 3B6#3201000000320500
(1762729614.053097) can0 3B6#330000000E000000
(1762729614.057939) can0 402#E401AD0B04000200
(1762729614.059506) can0 360#000003D600000000
(1762729614.059587) can0 361#03F5046C00000000
(1762729614.059727) can0 362#00000000FFCE0000
(1762729614.059848) can0 369#0000000000000000
(1762729614.059969) can0 36A#0000000000000000
(1762729614.060094) can0 36B#0000000000000000
(1762729614.060222) can0 376#0000000000000000
(1762729614.060356) can0 3EC#0000000000000000
(1762729614.060473) can0 3EF#0000000000000000
(1762729614.060596) can0 471#001C000003F50000
(1762729614.060723) can0 6F1#0000000000000000
(1762729614.062914) can0 2B1#801180110000008D
(1762729614.062994) can0 3B6#3201000000320500
(1762729614.063137) can0 3B6#330000000E000000
(1762729614.068241) can0 403#0200000000000000
(1762729614.069991) can0 3E5#000000000000001C
(1762729614.070074) can0 364#2071000000000000
(1762729614.070213) can0 36C#0000000000000000
(1762729614.070325) can0 36D#0000000000000000
(1762729614.070446) can0 36E#0000000000000000
(1762729614.070558) can0 3EA#0000000000000000
(1762729614.070687) can0 3EB#00000000FFCEFFCE
(1762729614.070810) can0 3ED#0000000000000000
(1762729614.070937) can0 472#0000000000000000
(1762729614.071063) can0 473#0000000008000000
(1762729614.071182) can0 6F2#0000000000000000
(1762729614.072871) can0 2B1#801180110000008E
(1762729614.072964) can0 3B6#3201000000320500
(1762729614.073094) can0 3B6#330000000E000000
(1762729614.078035) can0 401#0000800000000000
(1762729614.080918) can0 360#000003D800000000
(1762729614.081016) can0 361#03F5046C00000000
(1762729614.081167) can0 362#00000000FFCE0000
(1762729614.081262) can0 36F#0000000000000000
(1762729614.081388) can0 370#0000000000000000
(1762729614.081514) can0 3E6#0000000000000000
(1762729614.081641) can0 3EC#0000000000000000
(1762729614.081762) can0 471#001F000003F50000
(1762729614.081890) can0 474#0000000000000000
(1762729614.082012) can0 477#FFFF000000000000
(1762729614.082141) can0 6F3#0000000000000000
(1762729614.082877) can0 2B1#801180110000008E
(1762729614.082995) can0 3B6#3201000000320500
(1762729614.083116) can0 3B6#330000000E000000
(1762729614.087733) can0 402#DD018F0B04000200
(1762729614.091812) can0 3E5#000000000000001C
(1762729614.091930) can0 364#207F000000000000
(1762729614.092049) can0 3E9#00000000036B0000
(1762729614.092175) can0 3EA#0000000000000000
(1762729614.092297) can0 3EB#00000000FFCEFFCE
(1762729614.092425) can0 3ED#0000000000000000
(1762729614.092549) can0 475#0000000000000000
(1762729614.092674) can0 476#0000000000000000
(1762729614.092799) can0 6F4#0000000000000000
(1762729614.092919) can0 2B1#801180110000008E
(1762729614.093045) can0 2BE#81007FFF00000000
(1762729614.093166) can0 3B6#330000000E000000
(1762729614.093286) can0 3B6#3201000000320500
(1762729614.093407) can0 6F7#000000000BBC0000
(1762729614.097693) can0 403#0200000000000000
(1762729614.102913) can0 2B1#801180110000008E
(1762729614.103002) can0 3B6#3201000000320500
(1762729614.103125) can0 3B6#330000000E000000
(1762729614.103631) can0 360#000003D700000000
(1762729614.103734) can0 361#0510046700000000
(1762729614.103856) can0 362#00000000FFCE0000
(1762729614.103982) can0 363#0000000000000000
(1762729614.104105) can0 368#0011000000000000
(1762729614.104233) can0 3EC#0000000000000000
(1762729614.104356) can0 3EE#0000000000000000
(1762729614.104484) can0 470#001100000000FC00
(1762729614.104602) can0 471#001E000003F50000
(1762729614.104718) can0 6F6#0000000000000000
(1762729614.107914) can0 401#0000800000000000
(1762729614.112860) can0 3B6#3201000000320500
(1762729614.112945) can0 2B1#801180110000008E
(1762729614.113074) can0 3B6#330000000E000000
(1762729614.114998) can0 3E5#000000000000001C
(1762729614.115119) can0 364#208C000000000000
(1762729614.115238) can0 369#0000000000000000
(1762729614.115363) can0 36A#0000000000000000
(1762729614.115489) can0 36B#0000000000000000
(1762729614.115614) can0 371#0000000000000000
(1762729614.115739) can0 3EA#0000000000000000
(1762729614.115864) can0 3EB#00000000FFCEFFCE
(1762729614.115990) can0 3ED#0000000000000000
(1762729614.116116) can0 3EF#0000000000000000
(1762729614.116238) can0 469#0C28000000000000
(1762729614.117535) can0 402#DE01890B04000200
(1762729614.122881) can0 2B1#801180110000008E
(1762729614.122994) can0 3B6#3201000000320500
(1762729614.123103) can0 3B6#330000000E000000
(1762729614.124876) can0 37F#04C0000000000000
(1762729614.125882) can0 360#000003D700000000
(1762729614.125987) can0 361#06FE046700000000
(1762729614.126107) can0 362#00000000FFCE0000
(1762729614.126232) can0 36C#0000000000000000
(1762729614.126357) can0 36D#0000000000000000
(1762729614.126481) can0 36E#0000000000000000
(1762729614.126604) can0 372#00720000FC0B03F5
(1762729614.126729) can0 3EC#0000000000000000
(1762729614.126848) can0 471#0229000003F50000
(1762729614.126972) can0 472#0000000000000000
(1762729614.127097) can0 6F8#00000000000003E8
(1762729614.127991) can0 403#0200000000000000
(1762729614.132886) can0 2B1#801180110000008E
(1762729614.132991) can0 3B6#3201000000320500
(1762729614.133108) can0 3B6#330000000E000000
(1762729614.136898) can0 3E5#000000000000001C
(1762729614.137020) can0 364#2A32000000000000
(1762729614.137124) can0 36F#0000000000000000
(1762729614.137248) can0 370#0000000000000000
(1762729614.137403) can0 373#0000000000000000
(1762729614.137572) can0 3E6#0000000000000000
(1762729614.137652) can0 3EA#0000000000000000
(1762729614.137832) can0 3EB#00000000FFCEFFCE
(1762729614.137915) can0 3ED#0000000000000000
(1762729614.138000) can0 474#0000000000000000
(1762729614.138631) can0 401#0000800000000000
(1762729614.142887) can0 2B1#801180110000008E
(1762729614.142991) can0 2B3#100F0E0000000000
(1762729614.143098) can0 2BE#0000000000FFFFFF
(1762729614.143222) can0 3B6#3201000000320500
(1762729614.143341) can0 3B6#330000000E000000
(1762729614.147338) can0 402#DE01830B04000200
(1762729614.148518) can0 360#000003D800000000
(1762729614.148617) can0 361#08F2046500000000
(1762729614.148742) can0 362#00000000FFCE0000
(1762729614.148864) can0 374#0000000000000000
(1762729614.148989) can0 3E9#0000000003580000
(1762729614.149121) can0 3EC#0000000000000000
(1762729614.149235) can0 471#049D000003F50000
(1762729614.149362) can0 476#0000000000000000
(1762729614.149489) can0 6F4#0000000000000000
(1762729614.152875) can0 3B6#3201000000320500
(1762729614.152981) can0 2B1#801180110000008E
(1762729614.153100) can0 3B6#330000000E000000
(1762729614.157482) can0 403#0200000000000000
(1762729614.158018) can0 3E5#000000000000001C
(1762729614.158108) can0 363#0000000000000000
(1762729614.158224) can0 364#2A15000000000000
(1762729614.158347) can0 368#0011000000000000
(1762729614.158485) can0 375#0000000000000000
(1762729614.158597) can0 3EA#0000000000000000
(1762729614.158724) can0 3EB#00000000FFCEFFCE
(1762729614.158847) can0 3ED#0000000000000000
(1762729614.158972) can0 3EE#0000000000000000
(1762729614.159095) can0 470#001100000000FC00
(1762729614.162846) can0 2B1#801180110000008D
(1762729614.162959) can0 3B6#3201000000320500
(1762729614.163081) can0 3B6#330000000E000000
(1762729614.167320) can0 401#0000800000000000
(1762729614.169018) can0 360#000003D900000000
(1762729614.169116) can0 361#0AE6046200000000
(1762729614.169238) can0 362#00000000FFCE0000
(1762729614.169361) can0 369#0000000000000000
(1762729614.169489) can0 36A#0000000000000000
(1762729614.169615) can0 36B#0000000000000000
(1762729614.169735) can0 376#0000000000000000
(1762729614.169863) can0 3EC#0000000000000000
(1762729614.169994) can0 3EF#0000000000000000
(1762729614.170111) can0 471#070D000003F50000
(1762729614.172908) can0 2B1#801180110000008D
(1762729614.172999) can0 3B6#3201000000320500
(1762729614.173122) can0 3B6#330000000E000000
(1762729614.177130) can0 402#DE017E0B04000200
(1762729614.179899) can0 3E5#000000000000001C
(1762729614.180008) can0 364#29FE000000000000
(1762729614.180136) can0 36C#0000000000000000
(1762729614.180260) can0 36D#0000000000000000
(1762729614.180383) can0 36E#0000000000000000
(1762729614.180510) can0 3EA#0000000000000000
(1762729614.180633) can0 3EB#00000000FFCEFFCE
(1762729614.180759) can0 3ED#0000000000000000
(1762729614.180883) can0 472#0000000000000000
(1762729614.181010) can0 473#0000000008000000
(1762729614.182852) can0 3B6#3201000000320500
(1762729614.182954) can0 2B1#801180110000008D
(1762729614.183069) can0 3B6#330000000E000000
(1762729614.187384) can0 403#0200000000000000
(1762729614.190822) can0 360#000003D700000000
(1762729614.190895) can0 361#0D56046200000000
(1762729614.191023) can0 362#00000000FFCE0000
(1762729614.191145) can0 36F#0000000000000000
(1762729614.191277) can0 370#0000000000000000
(1762729614.191398) can0 3E6#0000000000000000
(1762729614.191525) can0 3EC#0000000000000000
(1762729614.191642) can0 471#070D000003F50000
(1762729614.191771) can0 474#0000000000000000
(1762729614.191892) can0 477#FFFF000000000000
(1762729614.192891) can0 2B1#801180110000008D
(1762729614.193018) can0 2BE#01007FFF00000000
(1762729614.193111) can0 3B6#330000000E000000
(1762729614.193237) can0 3B6#3201000000320500
(1762729614.197252) can0 401#0000800000000000
(1762729614.202042) can0 3E5#000000000000001C
(1762729614.202137) can0 364#2A15000000000000
(1762729614.202265) can0 3E9#0000000003580000
(1762729614.202395) can0 3EA#0000000000000000
(1762729614.202511) can0 3EB#00000000FFCEFFCE
(1762729614.202640) can0 3ED#0000000000000000
(1762729614.202760) can0 476#0000000000000000
(1762729614.202886) can0 6F4#0000000000000000
(1762729614.203003) can0 2B1#801180110000008D
(1762729614.203124) can0 3B6#3201000000320500
(1762729614.203248) can0 3B6#330000000E000000
(1762729614.203365) can0 6F7#000000000BBC0000
(1762729614.206990) can0 402#DE017B0B04000200
(1762729614.212863) can0 2B1#801180110000008D
(1762729614.212977) can0 3B6#3201000000320500
(1762729614.213086) can0 3B6#330000000E000000
(1762729614.214241) can0 360#000003D900000000
(1762729614.214357) can0 361#0F48046200000000
(1762729614.214480) can0 362#00000000FFCE0000
(1762729614.214603) can0 363#0000000000000000
(1762729614.214727) can0 368#0011000000000000
(1762729614.214850) can0 3E0#0BC80BBC00000BCD
(1762729614.214973) can0 3EC#0000000000000000
(1762729614.215098) can0 3EE#0000000000000000
(1762729614.215223) can0 470#001100000000FC00
(1762729614.215344) can0 471#09FC000003F50000
(1762729614.216863) can0 403#0200000000000000
(1762729614.220653) can0 60B#221710009600
(1762729614.222960) can0 2B1#801180110000008E
(1762729614.223033) can0 3B6#3201000000320500
(1762729614.223177) can0 3B6#330000000E000000
(1762729614.224569) can0 3E5#000000000000001C
(1762729614.224678) can0 364#2A20000000000000
(1762729614.224707) can0 36A#0000000000000000
(1762729614.224757) can0 36B#0000000000000000
(1762729614.224923) can0 371#0000000000000000
(1762729614.225026) can0 3E1#0000000000000000
(1762729614.225155) can0 3EA#0000000000000000
(1762729614.225273) can0 3EB#00000000FFCEFFCE
(1762729614.225402) can0 3ED#0000000000000000
(1762729614.225534) can0 3EF#0000000000000000
(1762729614.227114) can0 401#0000800000000000
(1762729614.229767) can0 37F#04C0000000000000
(1762729614.231417) can0 60B#2200180200
(1762729614.232853) can0 2B1#801180110000008D
(1762729614.232965) can0 3B6#3201000000320500
(1762729614.233086) can0 3B6#330000000E000000
(1762729614.234772) can0 360#000003D700000000
(1762729614.234892) can0 361#113C046500000000
(1762729614.235016) can0 362#00000000FFCE0000
(1762729614.235142) can0 36C#0000000000000000
(1762729614.235266) can0 36D#0000000000000000
(1762729614.235390) can0 36E#0000000000000000
(1762729614.235513) can0 372#00710000FC0B03F5
(1762729614.235638) can0 3E2#03E80000FFFF0000
(1762729614.235766) can0 3EC#0000000000000000
(1762729614.235885) can0 471#0C6B000003F50000
(1762729614.236009) can0 472#0000000000000000
(1762729614.236714) can0 402#DE017B0B04000200
(1762729614.242894) can0 2B1#801180110000008E
(1762729614.243035) can0 2B3#100F0E0000000000
(1762729614.243133) can0 2BE#8000000000FFFFFF
(1762729614.243257) can0 3B6#3201000000320500
(1762729614.243374) can0 3B6#330000000E000000
(1762729614.243832) can0 60B#220018030000
(1762729614.244803) can0 3E5#000000000000001C
(1762729614.244931) can0 364#2911000000000000
(1762729614.245037) can0 36F#0000000000000000
(1762729614.245161) can0 370#0000000000000000
(1762729614.245287) can0 373#0000000000000000
(1762729614.245413) can0 3E3#0000000000000000
(1762729614.245542) can0 3E6#0000000000000000
(1762729614.245664) can0 3EA#0000000000000000
(1762729614.245783) can0 3EB#00000000FFCEFFCE
(1762729614.245913) can0 3ED#0000000000000000
(1762729614.246047) can0 474#0000000000000000
(1762729614.246774) can0 403#0200000000000000
(1762729614.252905) can0 2B1#801180110000008D
(1762729614.253031) can0 3B6#3201000000320500
(1762729614.253140) can0 3B6#330000000E000000
(1762729614.254162) can0 60B#220018050000
(1762729614.255236) can0 360#000003D700000000
(1762729614.255323) can0 361#12CE046200000000
(1762729614.255459) can0 362#00000000FFCE0000
(1762729614.255572) can0 374#0000000000000000
(1762729614.255700) can0 3E4#0001000100000080
(1762729614.255825) can0 3E9#0000000003570000
(1762729614.255949) can0 3EC#0000000000000000
(1762729614.256074) can0 471#0EB7000003F50000
(1762729614.256199) can0 476#0000000000000000
(1762729614.256320) can0 6F4#0000000000000000
(1762729614.257001) can0 401#0000800000000000
(1762729614.262879) can0 2B1#801180110000008E
(1762729614.262996) can0 3B6#3201000000320500
(1762729614.263102) can0 3B6#330000000E000000
(1762729614.265031) can0 3E5#000000000000001C
(1762729614.265146) can0 363#0000000000000000
(1762729614.265264) can0 364#25C8000000000000
(1762729614.265387) can0 368#0011000000000000
(1762729614.265513) can0 375#0000000000000000
(1762729614.265641) can0 3EA#0000000000000000
(1762729614.265763) can0 3EB#00000000FFCEFFCE
(1762729614.265899) can0 3ED#0000000000000000
(1762729614.266028) can0 3EE#0000000000000000
(1762729614.266138) can0 470#001100000000FC00
(1762729614.266268) can0 6F0#0000000000000000
(1762729614.266518) can0 402#DE017A0B04000200
(1762729614.272915) can0 2B1#801180110000008D
(1762729614.273005) can0 3B6#3201000000320500
(1762729614.273129) can0 3B6#330000000E000000
(1762729614.275815) can0 360#000003D600000000
(1762729614.275952) can0 361#1340046200000000
(1762729614.276049) can0 362#00000000FFCE0000
(1762729614.276170) can0 369#0000000000000000
(1762729614.276293) can0 36A#0000000000000000
(1762729614.276415) can0 36B#0000000000000000
(1762729614.276546) can0 376#0000000000000000
(1762729614.276677) can0 3EC#0000000000000000
(1762729614.276797) can0 3EF#0000000000000000
(1762729614.276915) can0 471#0F66000003F50000
(1762729614.277043) can0 6F1#0000000000000000
(1762729614.278100) can0 403#0200000000000000
(1762729614.282872) can0 2B1#801180110000008D
(1762729614.282976) can0 3B6#3201000000320500
(1762729614.283087) can0 3B6#330000000E000000
(1762729614.286633) can0 401#0000800000000000
(1762729614.286837) can0 3E5#000000000000001C
(1762729614.286953) can0 364#24CE000000000000
(1762729614.287082) can0 36C#0000000000000000
(1762729614.287203) can0 36D#0000000000000000
(1762729614.287329) can0 36E#0000000000000000
(1762729614.287457) can0 3EA#0000000000000000
(1762729614.287579) can0 3EB#00000000FFCEFFCE
(1762729614.287711) can0 3ED#0000000000000000
(1762729614.287828) can0 472#0000000000000000
(1762729614.287954) can0 473#0000000008000000
(1762729614.288084) can0 6F2#0000000000000000
(1762729614.292940) can0 2B1#801180110000008D
(1762729614.293024) can0 2BE#81007FFF00000000
(1762729614.293148) can0 3B6#330000000E000000
(1762729614.293264) can0 3B6#3201000000320500
(1762729614.296432) can0 402#DE01780B04000200
(1762729614.298216) can0 360#000003D600000000
(1762729614.298320) can0 361#1340046200000000
(1762729614.298447) can0 362#00000000FFCE0000
(1762729614.298566) can0 36F#0000000000000000
(1762729614.298690) can0 370#0000000000000000
(1762729614.298818) can0 3E6#0000000000000000
(1762729614.298946) can0 3EC#0000000000000000
(1762729614.299066) can0 471#0F66000003F50000
(1762729614.299193) can0 474#0000000000000000
(1762729614.299316) can0 477#FFFF000000000000
(1762729614.299433) can0 6F3#0DA80DA800000000
(1762729614.302902) can0 2B1#801180110000008D
(1762729614.303005) can0 3B6#3201000000320500
(1762729614.303125) can0 3B6#330000000E000000
(1762729614.306721) can0 403#0200000000000000
(1762729614.307935) can0 3E5#000000000000001C
(1762729614.307998) can0 364#24D6000000000000
(1762729614.308156) can0 3E9#0000000003570000
(1762729614.308263) can0 3EA#0000000000000000
(1762729614.308392) can0 3EB#00000000FFCEFFCE
(1762729614.308524) can0 3ED#0000000000000000
(1762729614.308635) can0 475#0000000000000000
(1762729614.308767) can0 476#0000000000000000
(1762729614.308990) can0 6F4#0000000000000000
(1762729614.309081) can0 6F7#000000000BBC0000
(1762729614.312587) can0 6F5#0000000000000000
(1762729614.312876) can0 2B1#801180110000008D
(1762729614.312989) can0 3B6#3201000000320500
(1762729614.313110) can0 3B6#330000000E000000
(1762729614.316503) can0 401#0000800000000000
(1762729614.321552) can0 360#000003D800000000
(1762729614.321640) can0 361#1341046200000000
(1762729614.321771) can0 362#00000000FFCE0000
(1762729614.321891) can0 363#0000000000000000
(1762729614.322015) can0 368#0011000000000000
(1762729614.322144) can0 3EC#0000000000000000
(1762729614.322290) can0 3EE#0000000000000000
(1762729614.322394) can0 470#001100000000FC00
(1762729614.322516) can0 471#0F69000003F50000
(1762729614.322659) can0 6F6#0000000000000000
(1762729614.322904) can0 2B1#801180110000008D
(1762729614.323019) can0 3B6#3201000000320500
(1762729614.323135) can0 3B6#330000000E000000
(1762729614.326299) can0 402#DD01760B04000200
(1762729614.331978) can0 3E5#000000000000001C
(1762729614.332099) can0 364#24DA000000000000
(1762729614.332211) can0 369#0000000000000000
(1762729614.332328) can0 36A#0000000000000000
(1762729614.332453) can0 36B#0000000000000000
(1762729614.332581) can0 371#0000000000000000
(1762729614.332705) can0 3EA#0000000000000000
(1762729614.332829) can0 3EB#00000000FFCEFFCE
(1762729614.332951) can0 2B1#801180110000008D
(1762729614.333069) can0 3B6#3201000000320500
(1762729614.333192) can0 3B6#330000000E000000
(1762729614.333319) can0 3ED#0000000000000000
(1762729614.333445) can0 3EF#0000000000000000
(1762729614.333566) can0 37F#04BD000000000000
(1762729614.333689) can0 469#0C29000000000000
(1762729614.336169) can0 403#0200000000000000
(1762729614.343085) can0 2B1#801180110000008D
(1762729614.343144) can0 2B3#100F0E0000000000
(1762729614.343173) can0 2BE#0000000000FFFFFF
(1762729614.343335) can0 3B6#3201000000320500
(1762729614.343380) can0 3B6#330000000E000000
(1762729614.343520) can0 360#000003D800000000
(1762729614.343642) can0 361#1341046200000000
(1762729614.343758) can0 362#00000000FFCE0000
(1762729614.343889) can0 36C#0000000000000000
(1762729614.344017) can0 36D#0000000000000000
(1762729614.344133) can0 36E#0000000000000000
(1762729614.344253) can0 372#00710000FC0B03F5
(1762729614.344391) can0 3EC#0000000000000000
(1762729614.344505) can0 471#0F69000003F50000
(1762729614.344622) can0 472#0000000000000000
(1762729614.344755) can0 6F8#00000000000003E8
(1762729614.346401) can0 401#0000800000000000
(1762729614.352793) can0 3E5#000000000000001C
(1762729614.352913) can0 364#24DA000000000000
(1762729614.353022) can0 2B1#801180110000008D
(1762729614.353141) can0 36F#0000000000000000
(1762729614.353269) can0 370#0000000000000000
(1762729614.353392) can0 373#0000000000000000
(1762729614.353515) can0 3B6#3201000000320500
(1762729614.353635) can0 3B6#330000000E000000
(1762729614.353762) can0 3E6#0000000000000000
(1762729614.353887) can0 3EA#0000000000000000
(1762729614.354012) can0 3EB#00000000FFCEFFCE
(1762729614.354141) can0 3ED#0000000000000000
(1762729614.354267) can0 474#0000000000000000
(1762729614.356041) can0 402#DE01770B04000200
(1762729614.362911) can0 2B1#801180110000008D
(1762729614.363009) can0 3B6#3201000000320500
(1762729614.363138) can0 3B6#330000000E000000
(1762729614.363951) can0 360#000003D800000000
(1762729614.364055) can0 361#1340046500000000
(1762729614.364181) can0 362#00000000FFCE0000
(1762729614.364301) can0 374#0000000000000000
(1762729614.364424) can0 3E9#0000000003580000
(1762729614.364549) can0 3EC#0000000000000000
(1762729614.364677) can0 471#0F68000003F50000
(1762729614.364800) can0 476#0000000000000000
(1762729614.364923) can0 6F4#0000000000000000
(1762729614.366062) can0 403#0200000000000000
(1762729614.372928) can0 2B1#801180110000008D
(1762729614.372999) can0 3B6#3201000000320500
(1762729614.373184) can0 3B6#330000000E000000
(1762729614.374815) can0 3E5#000000000000001C
(1762729614.374901) can0 363#0000000000000000
(1762729614.375030) can0 364#24DA000000000000
(1762729614.375162) can0 368#0011000000000000
(1762729614.375271) can0 375#0000000000000000
(1762729614.375410) can0 3EA#0000000000000000
(1762729614.375522) can0 3EB#00000000FFCEFFCE
(1762729614.375652) can0 3ED#0000000000000000
(1762729614.375774) can0 3EE#0000000000000000
(1762729614.375900) can0 470#001100000000FC00
(1762729614.376866) can0 401#0000800000000000
(1762729614.382884) can0 2B1#801180110000008D
(1762729614.383008) can0 3B6#3201000000320500
(1762729614.383112) can0 3B6#330000000E000000
(1762729614.385544) can0 360#000003D800000000
(1762729614.385660) can0 361#1341046700000000
(1762729614.385776) can0 362#00000000FFCE0000
(1762729614.385899) can0 369#0000000000000000
(1762729614.386023) can0 36A#0000000000000000
(1762729614.386144) can0 36B#0000000000000000
(1762729614.386269) can0 376#0000000000000000
(1762729614.386396) can0 3EC#0000000000000000
(1762729614.386523) can0 3EF#0000000000000000
(1762729614.386644) can0 402#DE01760B04000200
(1762729614.386764) can0 471#0F69000003F50000
(1762729614.392947) can0 2B1#801180110000008D
(1762729614.393018) can0 2BE#01007FFF00000000
(1762729614.393200) can0 3B6#330000000E000000
(1762729614.393261) can0 3B6#3201000000320500
(1762729614.396062) can0 403#0200000000000000
(1762729614.396497) can0 3E5#000000000000001C
(1762729614.396617) can0 364#24DA000000000000
(1762729614.396733) can0 36C#0000000000000000
(1762729614.396864) can0 36D#0000000000000000
(1762729614.396979) can0 36E#0000000000000000
(1762729614.397107) can0 3EA#0000000000000000
(1762729614.397234) can0 3EB#00000000FFCEFFCE
(1762729614.397358) can0 3ED#0000000000000000
(1762729614.397484) can0 472#0000000000000000
(1762729614.397609) can0 473#0000000008000000
(1762729614.402863) can0 2B1#801180110000008D
(1762729614.402972) can0 3B6#3201000000320500
(1762729614.403090) can0 3B6#330000000E000000
(1762729614.405822) can0 360#000003D800000000
(1762729614.405962) can0 361#1340046500000000
(1762729614.406053) can0 362#00000000FFCE0000
(1762729614.406184) can0 36F#0000000000000000
(1762729614.406303) can0 370#0000000000000000
(1762729614.406439) can0 3E6#0000000000000000
(1762729614.406555) can0 3EC#0000000000000000
(1762729614.406681) can0 401#0000800000000000
(1762729614.406808) can0 471#0F69000003F50000
(1762729614.406927) can0 474#0000000000000000
(1762729614.407055) can0 477#FFFF000000000000
(1762729614.412911) can0 2B1#801180110000008E
(1762729614.413029) can0 3B6#3201000000320500
(1762729614.413144) can0 3B6#330000000E000000
(1762729614.415725) can0 402#DE01770B04000200
(1762729614.416496) can0 3E5#000000000000001C
(1762729614.416613) can0 364#24DA000000000000
(1762729614.416735) can0 3E9#0000000003580000
(1762729614.416857) can0 3EA#0000000000000000
(1762729614.416976) can0 3EB#00000000FFCEFFCE
(1762729614.417102) can0 3ED#0000000000000000
(1762729614.417231) can0 476#0000000000000000
(1762729614.417354) can0 6F4#0000000000000000
(1762729614.417475) can0 6F7#000000000BBC0000
(1762729614.422883) can0 3B6#3201000000320500
(1762729614.422961) can0 2B1#801180110000008D
(1762729614.423098) can0 3B6#330000000E000000
(1762729614.425992) can0 403#0200000000000000
(1762729614.426232) can0 360#000003D600000000
(1762729614.426272) can0 361#1341046200000000
(1762729614.426411) can0 362#00000000FFCE0000
(1762729614.426533) can0 363#0000000000000000
(1762729614.426660) can0 368#0011000000000000
(1762729614.426769) can0 3E0#0BC90BBC00000BCC
(1762729614.426896) can0 3EC#0000000000000000
(1762729614.427030) can0 3EE#0000000000000000
(1762729614.427148) can0 470#001100000000FC00
(1762729614.427276) can0 471#0F68000003F50000
(1762729614.430873) can0 60C#221710009600
(1762729614.432887) can0 2B1#801180110000008D
(1762729614.432998) can0 37F#04B2000000000000
(1762729614.433113) can0 3B6#3201000000320500
(1762729614.433237) can0 3B6#330000000E000000
(1762729614.435775) can0 401#0000800000000000
(1762729614.436768) can0 3E5#000000000000001C
(1762729614.436893) can0 364#24C0000000000000
(1762729614.437017) can0 369#0000000000000000
(1762729614.437143) can0 36A#0000000000000000
(1762729614.437266) can0 36B#0000000000000000
(1762729614.437392) can0 371#0000000000000000
(1762729614.437519) can0 3E1#0000000000000000
(1762729614.437645) can0 3EA#0000000000000000
(1762729614.437767) can0 3EB#00000000FFCEFFCE
(1762729614.437894) can0 3ED#0000000000000000
(1762729614.438022) can0 3EF#0000000000000000
(1762729614.442921) can0 2B1#801180110000008D
(1762729614.443024) can0 2B3#100F0E0000000000
(1762729614.443207) can0 2BE#8000000000FFFFFF
(1762729614.443249) can0 3B6#3201000000320500
(1762729614.443319) can0 3B6#19
(1762729614.443442) can0 3B6#330000000E000000
(1762729614.444955) can0 60C#2200180200
(1762729614.445533) can0 402#DE01770B04000200
(1762729614.448375) can0 360#000003D400000000
(1762729614.448498) can0 361#1343046200000000
(1762729614.448598) can0 362#00000000FFCE0000
(1762729614.448742) can0 36C#0000000000000000
(1762729614.448848) can0 36D#0000000000000000
(1762729614.448982) can0 36E#0000000000000000
(1762729614.449094) can0 372#00730000FC0B03F5
(1762729614.449223) can0 3E2#03E80000FFFF0000
(1762729614.449344) can0 3EC#0000000000000000
(1762729614.449473) can0 471#0F6E000003F50000
(1762729614.449587) can0 472#0000000000000000
(1762729614.452869) can0 3B6#3201000000320500
(1762729614.452988) can0 2B1#801180110000008D
(1762729614.453096) can0 3B6#330000000E000000
(1762729614.455456) can0 403#0200000000000000
(1762729614.457917) can0 60C#220018030000
(1762729614.459182) can0 3E5#000000000000001C
(1762729614.459276) can0 364#24AB000000000000
(1762729614.459328) can0 36F#0000000000000000
(1762729614.459570) can0 370#0000000000000000
(1762729614.459612) can0 373#0000000000000000
(1762729614.459727) can0 3E3#0000000000000000
(1762729614.459858) can0 3E6#0000000000000000
(1762729614.459979) can0 3EA#0000000000000000
(1762729614.460116) can0 3EB#00000000FFCEFFCE
(1762729614.460225) can0 3ED#0000000000000000
(1762729614.460359) can0 474#0000000000000000
(1762729614.462961) can0 2B1#801180110000008D
(1762729614.463038) can0 3B6#3201000000320500
(1762729614.463159) can0 3B6#330000000E000000
(1762729614.465697) can0 401#0000800000000000
(1762729614.470478) can0 360#000003D300000000
(1762729614.470583) can0 361#1341046500000000
(1762729614.470700) can0 362#00000000FFCE0000
(1762729614.470834) can0 374#0000000000000000
(1762729614.470982) can0 3E4#0001000100000080
(1762729614.471077) can0 3E9#0000000003580000
(1762729614.471211) can0 3EC#0000000000000000
(1762729614.471322) can0 471#0F70000003F50000
(1762729614.471451) can0 476#0000000000000000
(1762729614.471575) can0 6F4#0000000000000000
(1762729614.471685) can0 60C#220018050000
(1762729614.472879) can0 2B1#801180110000008D
(1762729614.472978) can0 3B6#3201000000320500
(1762729614.473110) can0 3B6#330000000E000000
(1762729614.475324) can0 402#DE01760B04000200
(1762729614.481585) can0 3E5#000000000000001C
(1762729614.481689) can0 363#0000000000000000
(1762729614.481814) can0 364#249E000000000000
(1762729614.481929) can0 368#0011000000000000
(1762729614.482068) can0 375#0000000000000000
(1762729614.482182) can0 3EA#0000000000000000
(1762729614.482319) can0 3EB#00000000FFCEFFCE
(1762729614.482434) can0 3ED#0000000000000000
(1762729614.482563) can0 3EE#0000000000000000
(1762729614.482690) can0 470#001100000000FC00
(1762729614.482813) can0 6F0#0000000000000000
(1762729614.482936) can0 3B6#3201000000320500
(1762729614.483049) can0 2B1#801180110000008D
(1762729614.483170) can0 3B6#330000000E000000
(1762729614.485362) can0 403#0200000000000000
(1762729614.492301) can0 360#000003D000000000
(1762729614.492362) can0 361#133E046500000000
(1762729614.492517) can0 362#00000000FFCE0000
(1762729614.492617) can0 369#0000000000000000
(1762729614.492748) can0 36A#0000000000000000
(1762729614.492874) can0 36B#0000000000000000
(1762729614.492988) can0 2B1#801180110000008D
(1762729614.493125) can0 2BE#81007FFF00000000
(1762729614.493239) can0 376#0000000000000000
(1762729614.493366) can0 3B6#330000000E000000
(1762729614.493482) can0 3B6#3201000000320500
(1762729614.493620) can0 3EC#0000000000000000
(1762729614.493740) can0 3EF#0000000000000000
(1762729614.493869) can0 471#0F6E000003F50000
(1762729614.493980) can0 6F1#0000000000000000
(1762729614.495499) can0 401#0000800000000000
(1762729614.502892) can0 2B1#801180110000008D
(1762729614.503000) can0 3B6#3201000000320500
(1762729614.503123) can0 3B6#330000000E000000
(1762729614.504095) can0 3E5#000000000000001C
(1762729614.504218) can0 364#248C000000000000
(1762729614.504345) can0 36C#0000000000000000
(1762729614.504469) can0 36D#0000000000000000
(1762729614.504592) can0 36E#0000000000000000
(1762729614.504719) can0 3EA#0000000000000000
(1762729614.504842) can0 3EB#00000000FFCEFFCE
(1762729614.504969) can0 3ED#0000000000000000
(1762729614.505093) can0 472#0000000000000000
(1762729614.505213) can0 402#DE01770B04000200
(1762729614.505337) can0 473#0000000008000000
(1762729614.505465) can0 6F2#0000000000000000
(1762729614.512938) can0 2B1#801180110000008D
(1762729614.513009) can0 3B6#3201000000320500
(1762729614.513170) can0 3B6#330000000E000000
(1762729614.514466) can0 360#000003D000000000
(1762729614.514609) can0 361#1340046500000000
(1762729614.514701) can0 362#00000000FFCE0000
(1762729614.514825) can0 36F#0000000000000000
(1762729614.514950) can0 370#0000000000000000
(1762729614.515081) can0 3E6#0000000000000000
(1762729614.515200) can0 3EC#0000000000000000
(1762729614.515323) can0 471#0F6E000003F50000
(1762729614.515448) can0 474#0000000000000000
(1762729614.515573) can0 477#FFFF000000000000
(1762729614.515692) can0 6F3#0DA80DA800000000
(1762729614.516587) can0 403#0200000000000000
(1762729614.522883) can0 2B1#801180110000008E
(1762729614.523003) can0 3B6#3201000000320500
(1762729614.523102) can0 3B6#330000000E000000
(1762729614.525213) can0 401#0000800000000000
(1762729614.525309) can0 3E5#000000000000001C
(1762729614.525427) can0 364#248C000000000000
(1762729614.525550) can0 3E9#0000000003580000
(1762729614.525678) can0 3EA#0000000000000000
(1762729614.525794) can0 3EB#00000000FFCEFFCE
(1762729614.525924) can0 3ED#0000000000000000
(1762729614.526050) can0 475#0000000000000000
(1762729614.526177) can0 476#0000000000000000
(1762729614.526314) can0 6F4#0000000000000000
(1762729614.526425) can0 6F7#000000000BBC0000
(1762729614.532894) can0 3B6#3201000000320500
(1762729614.533013) can0 2B1#801180110000008D
(1762729614.533122) can0 3B6#330000000E000000
(1762729614.534557) can0 37F#04AD000000000000
(1762729614.535003) can0 402#DD01760B04000200
(1762729614.535406) can0 360#000003D000000000
(1762729614.535519) can0 361#133C046500000000
(1762729614.535645) can0 362#00000000FFCE0000
(1762729614.535770) can0 363#0000000000000000
(1762729614.535891) can0 368#0011000000000000
(1762729614.536019) can0 3EC#0000000000000000
(1762729614.536145) can0 3EE#0000000000000000
(1762729614.536267) can0 470#001100000000FC00
(1762729614.536392) can0 471#0F70000003F50000
(1762729614.536512) can0 6F6#0000000000000000
(1762729614.542909) can0 2B1#801180110000008D
(1762729614.542991) can0 2B3#100F0E0000000000
(1762729614.543121) can0 2BE#0000000000FFFFFF
(1762729614.543234) can0 3B6#3201000000320500
(1762729614.543356) can0 3B6#330000000E000000
(1762729614.544614) can0 3E5#000000000000001C
(1762729614.544711) can0 364#248C000000000000
(1762729614.544854) can0 369#0000000000000000
(1762729614.544950) can0 36A#0000000000000000
(1762729614.545074) can0 36B#0000000000000000
(1762729614.545202) can0 371#0000000000000000
(1762729614.545336) can0 3EA#0000000000000000
(1762729614.545448) can0 3EB#00000000FFCEFFCE
(1762729614.545580) can0 3ED#0000000000000000
(1762729614.545707) can0 3EF#0000000000000000
(1762729614.545831) can0 469#0C0F000000000000
(1762729614.546487) can0 403#0200000000000000
(1762729614.552908) can0 2B1#801180110000008D
(1762729614.553005) can0 3B6#3201000000320500
(1762729614.553130) can0 3B6#330000000E000000
(1762729614.555085) can0 401#0000800000000000
(1762729614.555491) can0 360#000003D000000000
(1762729614.555615) can0 361#133E046200000000
(1762729614.555734) can0 362#00000000FFCE0000
(1762729614.555860) can0 36C#0000000000000000
(1762729614.555984) can0 36D#0000000000000000
(1762729614.556111) can0 36E#0000000000000000
(1762729614.556228) can0 372#00720000FC0B03F5
(1762729614.556357) can0 3EC#0000000000000000
(1762729614.556476) can0 471#0F6C000003F50000
(1762729614.556600) can0 472#0000000000000000
(1762729614.556726) can0 6F8#00000000000003E8
(1762729614.563105) can0 2B1#801180110000008D
(1762729614.563306) can0 3B6#3201000000320500
(1762729614.563341) can0 3B6#330000000E000000
(1762729614.564773) can0 3E5#000000000000001C
(1762729614.564858) can0 364#248C000000000000
(1762729614.564986) can0 36F#0000000000000000
(1762729614.565118) can0 370#0000000000000000
(1762729614.565236) can0 373#0000000000000000
(1762729614.565359) can0 3E6#0000000000000000
(1762729614.565485) can0 3EA#0000000000000000
(1762729614.565606) can0 3EB#00000000FFCEFFCE
(1762729614.565736) can0 3ED#0000000000000000
(1762729614.565854) can0 402#DE01760B04000200
(1762729614.565982) can0 474#0000000000000000
(1762729614.572876) can0 3B6#3201000000320500
(1762729614.572986) can0 2B1#801180110000008D
(1762729614.573105) can0 3B6#330000000E000000
(1762729614.574752) can0 403#0200000000000000
(1762729614.575329) can0 360#000003D000000000
(1762729614.575469) can0 361#133C046200000000
(1762729614.575570) can0 362#00000000FFCE0000
(1762729614.575693) can0 374#0000000000000000
(1762729614.575818) can0 3E9#0000000003580000
(1762729614.575951) can0 3EC#0000000000000000
(1762729614.576068) can0 471#0F6C000003F50000
(1762729614.576197) can0 476#0000000000000000
(1762729614.576320) can0 6F4#0000000000000000
(1762729614.582902) can0 3B6#3201000000320500
(1762729614.583013) can0 2B1#801180110000008D
(1762729614.583125) can0 3B6#330000000E000000
(1762729614.584627) can0 3E5#000000000000001C
(1762729614.584738) can0 363#0000000000000000
(1762729614.584862) can0 364#248C000000000000
(1762729614.584988) can0 368#0011000000000000
(1762729614.585107) can0 375#0000000000000000
(1762729614.585236) can0 3EA#0000000000000000
(1762729614.585358) can0 3EB#00000000FFCEFFCE
(1762729614.585477) can0 3ED#0000000000000000
(1762729614.585604) can0 3EE#0000000000000000
(1762729614.585729) can0 470#001100000000FC00
(1762729614.586636) can0 401#0000800000000000
(1762729614.592898) can0 2B1#801180110000008D
(1762729614.592990) can0 2BE#01007FFF00000000
(1762729614.593122) can0 3B6#330000000E000000
(1762729614.593244) can0 3B6#3201000000320500
(1762729614.594648) can0 402#DE01750B04000200
(1762729614.595415) can0 360#000003D000000000
(1762729614.595503) can0 361#133C046200000000
(1762729614.595665) can0 362#00000000FFCE0000
(1762729614.595756) can0 369#0000000000000000
(1762729614.595877) can0 36A#0000000000000000
(1762729614.596004) can0 36B#0000000000000000
(1762729614.596126) can0 376#0000000000000000
(1762729614.596251) can0 3EC#0000000000000000
(1762729614.596379) can0 3EF#0000000000000000
(1762729614.596499) can0 471#0F6C000003F50000
(1762729614.602910) can0 2B1#801180110000008D
(1762729614.603022) can0 3B6#3201000000320500
(1762729614.603133) can0 3B6#330000000E000000
(1762729614.604627) can0 403#0200000000000000
(1762729614.605853) can0 3E5#000000000000001C
(1762729614.605976) can0 364#248C000000000000
(1762729614.606105) can0 36C#0000000000000000
(1762729614.606226) can0 36D#0000000000000000
(1762729614.606351) can0 36E#0000000000000000
(1762729614.606477) can0 3EA#0000000000000000
(1762729614.606599) can0 3EB#00000000FFCEFFCE
(1762729614.606727) can0 3ED#0000000000000000
(1762729614.606851) can0 472#0000000000000000
(1762729614.606974) can0 473#0000000008000000
(1762729614.612913) can0 2B1#801180110000008D
(1762729614.612983) can0 3B6#3201000000320500
(1762729614.613135) can0 3B6#330000000E000000
(1762729614.614507) can0 401#0000800000000000
(1762729614.616428) can0 360#000003D000000000
(1762729614.616557) can0 361#133B046200000000
(1762729614.616662) can0 362#00000000FFCE0000
(1762729614.616785) can0 36F#0000000000000000
(1762729614.616909) can0 370#0000000000000000
(1762729614.617033) can0 3E6#0000000000000000
(1762729614.617161) can0 3EC#0000000000000000
(1762729614.617282) can0 471#0F6C000003F50000
(1762729614.617410) can0 474#0000000000000000
(1762729614.617531) can0 477#FFFF000000000000
(1762729614.622906) can0 2B1#801180110000008D
(1762729614.623020) can0 3B6#3201000000320500
(1762729614.623142) can0 3B6#330000000E000000
(1762729614.624384) can0 402#DD01750B04000200
(1762729614.626008) can0 3E5#000000000000001C
(1762729614.626135) can0 364#248C000000000000
(1762729614.626247) can0 3E9#0000000003580000
(1762729614.626375) can0 3EA#0000000000000000
(1762729614.626495) can0 3EB#00000000FFCEFFCE
(1762729614.626620) can0 3ED#0000000000000000
(1762729614.626743) can0 476#0000000000000000
(1762729614.626867) can0 6F4#0000000000000000
(1762729614.626991) can0 6F7#000000000BBB0000
(1762729614.632922) can0 2B1#801180110000008D
(1762729614.633027) can0 3B6#3201000000320500
(1762729614.633147) can0 3B6#330000000E000000
(1762729614.634355) can0 60D#221710009600
(1762729614.634946) can0 403#0200000000000000
(1762729614.636670) can0 360#000003D000000000
(1762729614.636787) can0 361#133B046200000000
(1762729614.636908) can0 362#00000000FFCE0000
(1762729614.637028) can0 363#0000000000000000
(1762729614.637159) can0 368#0011000000000000
(1762729614.637272) can0 3E0#0BC80BBB00000BCC
(1762729614.637402) can0 3EC#0000000000000000
(1762729614.637526) can0 3EE#0000000000000000
(1762729614.637650) can0 470#001100000000FC00
(1762729614.637772) can0 471#0F6B000003F50000
(1762729614.641991) can0 37F#04AE000000000000
(1762729614.642895) can0 2B1#801180110000008D
(1762729614.643016) can0 2B3#100F0E0000000000
(1762729614.643129) can0 2BE#8000000000FFFFFF
(1762729614.643255) can0 3B6#3201000000320500
(1762729614.643384) can0 3B6#330000000E000000
(1762729614.643816) can0 60D#2200180200
(1762729614.644814) can0 401#0000800000000000
(1762729614.647317) can0 3E5#000000000000001C
(1762729614.647381) can0 364#2497000000000000
(1762729614.647806) can0 369#0000000000000000
(1762729614.647969) can0 36A#0000000000000000
(1762729614.648070) can0 371#0000000000000000
(1762729614.648096) can0 3E1#0000000000000000
(1762729614.648125) can0 3EA#0000000000000000
(1762729614.648266) can0 3EB#00000000FFCEFFCE
(1762729614.648392) can0 3ED#0000000000000000
(1762729614.648517) can0 3EF#0000000000000000
(1762729614.652929) can0 2B1#801180110000008D
(1762729614.653027) can0 3B6#3201000000320500
(1762729614.653152) can0 3B6#330000000E000000
(1762729614.654201) can0 402#DE01730B04000200
(1762729614.657255) can0 60D#220018030000
(1762729614.657927) can0 360#000003D000000000
(1762729614.658047) can0 361#133C045D00000000
(1762729614.658177) can0 362#00000000FFCE0000
(1762729614.658296) can0 36C#0000000000000000
(1762729614.658421) can0 36D#0000000000000000
(1762729614.658545) can0 36E#0000000000000000
(1762729614.658667) can0 372#00720000FC0B03F5
(1762729614.658790) can0 3E2#03E80000FFFF0000
(1762729614.658920) can0 3EC#0000000000000000
(1762729614.659038) can0 471#0F6C000003F50000
(1762729614.659165) can0 472#0000000000000000
(1762729614.662918) can0 2B1#801180110000008D
(1762729614.662983) can0 3B6#3201000000320500
(1762729614.663166) can0 3B6#330000000E000000
(1762729614.664600) can0 403#0200000000000000
(1762729614.668332) can0 3E5#000000000000001C
(1762729614.668434) can0 364#2497000000000000
(1762729614.668552) can0 36F#0000000000000000
(1762729614.668686) can0 370#0000000000000000
(1762729614.668807) can0 373#0000000000000000
(1762729614.668927) can0 3E3#0000000000000000
(1762729614.669060) can0 3E6#0000000000000000
(1762729614.669189) can0 3EA#0000000000000000
(1762729614.669310) can0 3EB#00000000FFCEFFCE
(1762729614.669438) can0 3ED#0000000000000000
(1762729614.669557) can0 474#0000000000000000
(1762729614.670881) can0 60D#220018050000
(1762729614.672914) can0 3B6#3201000000320500
(1762729614.673046) can0 2B1#801180110000008D
(1762729614.673130) can0 3B6#330000000E000000
(1762729614.674282) can0 401#0000800000000000
(1762729614.678710) can0 360#000003D000000000
(1762729614.678797) can0 361#133E045D00000000
(1762729614.678927) can0 362#00000000FFCE0000
(1762729614.679051) can0 374#0000000000000000
(1762729614.679171) can0 3E4#0001000100000080
(1762729614.679305) can0 3E9#0000000003570000
(1762729614.679425) can0 3EC#0000000000000000
(1762729614.679551) can0 471#0F6E000003F50000
(1762729614.679670) can0 476#0000000000000000
(1762729614.679799) can0 6F4#0000000000000000
(1762729614.682924) can0 2B1#801180110000008D
(1762729614.682996) can0 3B6#3201000000320500
(1762729614.683194) can0 3B6#330000000E000000
(1762729614.684001) can0 402#DD01720B04000200
(1762729614.690690) can0 3E5#000000000000001C
(1762729614.690813) can0 363#0000000000000000
(1762729614.690912) can0 364#2497000000000000
(1762729614.691036) can0 368#0011000000000000
(1762729614.691162) can0 375#0000000000000000
(1762729614.691287) can0 3EA#0000000000000000
(1762729614.691410) can0 3EB#00000000FFCEFFCE
(1762729614.691535) can0 3ED#0000000000000000
(1762729614.691658) can0 3EE#0000000000000000
(1762729614.691783) can0 470#001100000000FC00
(1762729614.691908) can0 6F0#0000000000000000
(1762729614.692899) can0 2B1#801180110000008D
(1762729614.693026) can0 2BE#81007FFF00000000
(1762729614.693143) can0 3B6#330000000E000000
(1762729614.693263) can0 3B6#3201000000320500
(1762729614.693960) can0 403#0200000000000000
(1762729614.701425) can0 360#000003D000000000
(1762729614.701550) can0 361#1340046000000000
(1762729614.701657) can0 362#00000000FFCE0000
(1762729614.701775) can0 369#0000000000000000
(1762729614.701901) can0 36A#0000000000000000
(1762729614.702030) can0 36B#0000000000000000
(1762729614.702156) can0 376#0000000000000000
(1762729614.702279) can0 3EC#0000000000000000
(1762729614.702405) can0 3EF#0000000000000000
(1762729614.702526) can0 471#0F6E000003F50000
(1762729614.702651) can0 6F1#0000000000000000
(1762729614.702909) can0 2B1#801180110000008D
(1762729614.703028) can0 3B6#3201000000320500
(1762729614.703150) can0 3B6#330000000E000000
(1762729614.704169) can0 401#0000800000000000
(1762729614.712889) can0 3E5#000000000000001C
(1762729614.712954) can0 2B1#801180110000008D
(1762729614.713095) can0 364#2497000000000000
(1762729614.713205) can0 36C#0000000000000000
(1762729614.713335) can0 36D#0000000000000000
(1762729614.713462) can0 36E#0000000000000000
(1762729614.713577) can0 3B6#3201000000320500
(1762729614.713700) can0 3B6#330000000E000000
(1762729614.713828) can0 3EA#0000000000000000
(1762729614.713959) can0 3EB#00000000FFCEFFCE
(1762729614.714077) can0 3ED#0000000000000000
(1762729614.714194) can0 402#DE01720B04000200
(1762729614.714317) can0 472#0000000000000000
(1762729614.714440) can0 473#0000000008000000
(1762729614.714563) can0 6F2#0000000000000000
(1762729614.722921) can0 2B1#801180110000008D
(1762729614.723049) can0 3B6#3201000000320500
(1762729614.723144) can0 3B6#330000000E000000
(1762729614.723465) can0 360#000003D000000000
(1762729614.723576) can0 361#133E046200000000
(1762729614.723696) can0 362#00000000FFCE0000
(1762729614.723825) can0 36F#0000000000000000
(1762729614.723950) can0 370#0000000000000000
(1762729614.724071) can0 3E6#0000000000000000
(1762729614.724200) can0 3EC#0000000000000000
(1762729614.724322) can0 471#0F6E000003F50000
(1762729614.724445) can0 474#0000000000000000
(1762729614.724569) can0 477#FFFF000000000000
(1762729614.724688) can0 6F3#0DA80DA800000000
(1762729614.725472) can0 403#0200000000000000
(1762729614.732921) can0 2B1#801180110000008D
(1762729614.733007) can0 3B6#3201000000320500
(1762729614.733159) can0 3B6#330000000E000000
(1762729614.733687) can0 3E5#000000000000001C
(1762729614.733778) can0 364#2497000000000000
(1762729614.733909) can0 3E9#0000000003570000
(1762729614.734027) can0 3EA#0000000000000000
(1762729614.734151) can0 3EB#00000000FFCEFFCE
(1762729614.734275) can0 3ED#0000000000000000
(1762729614.734399) can0 475#0000000000000000
(1762729614.734523) can0 476#0000000000000000
(1762729614.734645) can0 6F4#0000000000000000
(1762729614.734769) can0 6F7#000000000BBB0000
(1762729614.735710) can0 401#0000800000000000
(1762729614.742918) can0 2B1#801180110000008D
(1762729614.743032) can0 2B3#100F0E0000000000
(1762729614.743155) can0 2BE#0000000000FFFFFF
(1762729614.743277) can0 3B6#3201000000320500
(1762729614.743399) can0 3B6#330000000E000000
(1762729614.743592) can0 402#DE01720B04000200
(1762729614.745348) can0 360#000003D000000000
(1762729614.745462) can0 361#1340046700000000
(1762729614.745579) can0 362#00000000FFCE0000
(1762729614.745702) can0 363#0000000000000000
(1762729614.745820) can0 368#0011000000000000
(1762729614.745957) can0 3EC#0000000000000000
(1762729614.746081) can0 3EE#0000000000000000
(1762729614.746204) can0 470#001100000000FC00
(1762729614.746326) can0 471#0F6E000003F50000
(1762729614.746452) can0 6F6#0000000000000000
(1762729614.749784) can0 37F#04AE000000000000
(1762729614.752934) can0 2B1#801180110000008D
(1762729614.753047) can0 3B6#3201000000320500
(1762729614.753157) can0 3B6#330000000E000000
(1762729614.753851) can0 403#0200000000000000
(1762729614.755388) can0 3E5#000000000000001C
(1762729614.755510) can0 364#2497000000000000
(1762729614.755603) can0 369#0000000000000000
(1762729614.755739) can0 36A#0000000000000000
(1762729614.755856) can0 36B#0000000000000000
(1762729614.755990) can0 371#0000000000000000
(1762729614.756110) can0 3EA#0000000000000000
(1762729614.756236) can0 3EB#00000000FFCEFFCE
(1762729614.756361) can0 3ED#0000000000000000
(1762729614.756484) can0 3EF#0000000000000000
(1762729614.756613) can0 469#0C0F000000000000
(1762729614.762926) can0 2B1#801180110000008D
(1762729614.763013) can0 3B6#3201000000320500
(1762729614.763161) can0 3B6#330000000E000000
(1762729614.764112) can0 401#0000800000000000
(1762729614.766753) can0 360#000003D000000000
(1762729614.766800) can0 361#133E046700000000
(1762729614.766848) can0 36D#0000000000000000
(1762729614.766917) can0 36E#0000000000000000
(1762729614.767044) can0 372#00720000FC0B03F5
(1762729614.767167) can0 3EC#0000000000000000
(1762729614.767286) can0 471#0F70000003F50000
(1762729614.767410) can0 472#0000000000000000
(1762729614.767543) can0 6F8#00000000000003E8
(1762729614.772945) can0 2B1#801180110000008D
(1762729614.773034) can0 3B6#3201000000320500
(1762729614.773158) can0 3B6#330000000E000000
(1762729614.773492) can0 402#DE01720B04000200
(1762729614.776996) can0 3E5#000000000000001C
(1762729614.777088) can0 364#2497000000000000
(1762729614.777214) can0 36F#0000000000000000
(1762729614.777349) can0 370#0000000000000000
(1762729614.777464) can0 373#0000000000000000
(1762729614.777587) can0 3E6#0000000000000000
(1762729614.777719) can0 3EA#0000000000000000
(1762729614.777846) can0 3EB#00000000FFCEFFCE
(1762729614.777970) can0 3ED#0000000000000000
(1762729614.778090) can0 474#0000000000000000
(1762729614.782902) can0 3B6#3201000000320500
(1762729614.782979) can0 2B1#801180110000008D
(1762729614.783110) can0 3B6#330000000E000000
(1762729614.783756) can0 403#0200000000000000
(1762729614.787897) can0 360#000003D000000000
(1762729614.787993) can0 361#133E046A00000000
(1762729614.788125) can0 362#00000000FFCE0000
(1762729614.788248) can0 374#0000000000000000
(1762729614.788375) can0 3E9#0000000003570000
(1762729614.788496) can0 3EC#0000000000000000
(1762729614.788615) can0 471#0F6E000003F50000
(1762729614.788736) can0 476#0000000000000000
(1762729614.788863) can0 6F4#0000000000000000
(1762729614.792943) can0 2B1#801180110000008D
(1762729614.793041) can0 2BE#01007FFF00000000
(1762729614.793161) can0 3B6#330000000E000000
(1762729614.793284) can0 3B6#3201000000320500
(1762729614.793996) can0 401#0000800000000000
(1762729614.798095) can0 3E5#000000000000001C
(1762729614.798196) can0 363#0000000000000000
(1762729614.798311) can0 364#2497000000000000
(1762729614.798433) can0 368#0011000000000000
(1762729614.798563) can0 375#0000000000000000
(1762729614.798689) can0 3EA#0000000000000000
(1762729614.798811) can0 3EB#00000000FFCEFFCE
(1762729614.798936) can0 3ED#0000000000000000
(1762729614.799062) can0 3EE#0000000000000000
(1762729614.799182) can0 470#001100000000FC00
(1762729614.802903) can0 2B1#801180110000008D
(1762729614.803003) can0 3B6#3201000000320500
(1762729614.803118) can0 3B6#330000000E000000
(1762729614.803279) can0 402#DE01720B04000200
(1762729614.808419) can0 360#000003D000000000
(1762729614.808507) can0 361#1341046A00000000
(1762729614.808642) can0 362#00000000FFCE0000
(1762729614.808757) can0 369#0000000000000000
(1762729614.808887) can0 36A#0000000000000000
(1762729614.809004) can0 36B#0000000000000000
(1762729614.809131) can0 376#0000000000000000
(1762729614.809260) can0 3EC#0000000000000000
(1762729614.809390) can0 3EF#0000000000000000
(1762729614.809503) can0 471#0F6E000003F50000
(1762729614.812922) can0 2B1#801180110000008D
(1762729614.813034) can0 3B6#3201000000320500
(1762729614.813140) can0 3B6#330000000E000000
(1762729614.814063) can0 403#0200000000000000
(1762729614.818004) can0 3E5#000000000000001C
(1762729614.818097) can0 364#2497000000000000
(1762729614.818224) can0 36C#0000000000000000
(1762729614.818349) can0 36D#0000000000000000
(1762729614.818474) can0 36E#0000000000000000
(1762729614.818601) can0 3EA#0000000000000000
(1762729614.818729) can0 3EB#00000000FFCEFFCE
(1762729614.818853) can0 3ED#0000000000000000
(1762729614.818974) can0 472#0000000000000000
(1762729614.819097) can0 473#0000000008000000
(1762729614.822898) can0 3B6#3201000000320500
(1762729614.822994) can0 2B1#801180110000008D
(1762729614.823112) can0 3B6#330000000E000000
(1762729614.823898) can0 401#0000800000000000
(1762729614.828751) can0 360#000003D000000000
(1762729614.828859) can0 361#1340046700000000
(1762729614.828970) can0 362#00000000FFCE0000
(1762729614.829095) can0 36F#0000000000000000
(1762729614.829220) can0 370#0000000000000000
(1762729614.829346) can0 3E6#0000000000000000
(1762729614.829473) can0 3EC#0000000000000000
(1762729614.829593) can0 471#0F70000003F50000
(1762729614.829719) can0 474#0000000000000000
(1762729614.829842) can0 477#FFFF000000000000
(1762729614.832562) can0 6F5#0000000000000000
(1762729614.832883) can0 2B1#801180110000008D
(1762729614.832995) can0 3B6#3201000000320500
(1762729614.833121) can0 3B6#330000000E000000
(1762729614.833239) can0 402#DE01720B04000200
(1762729614.836193) can0 60A#221710009600
(1762729614.839296) can0 3E5#000000000000001C
(1762729614.839423) can0 364#2497000000000000
(1762729614.839518) can0 3E9#0000000003570000
(1762729614.839644) can0 3EA#0000000000000000
(1762729614.839770) can0 3EB#00000000FFCEFFCE
(1762729614.839896) can0 3ED#0000000000000000
(1762729614.840022) can0 476#0000000000000000
(1762729614.840146) can0 6F4#0000000000000000
(1762729614.840267) can0 6F7#000000000BBA0000
(1762729614.842925) can0 3B6#3201000000320500
(1762729614.843022) can0 2B1#801180110000008D
(1762729614.843149) can0 2BE#8000000000FFFFFF
(1762729614.843267) can0 2B3#100F0E0000000000
(1762729614.843385) can0 3B6#330000000E000000
(1762729614.843952) can0 403#0200000000000000
(1762729614.848893) can0 60A#2200180200
(1762729614.849710) can0 360#000003D000000000
(1762729614.849825) can0 361#133E046A00000000
(1762729614.849952) can0 362#00000000FFCE0000
(1762729614.850073) can0 363#0000000000000000
(1762729614.850196) can0 368#0011000000000000
(1762729614.850314) can0 3E0#0BC80BBA00000BCC
(1762729614.850444) can0 3EC#0000000000000000
(1762729614.850569) can0 3EE#0000000000000000
(1762729614.850691) can0 470#001100000000FC00
(1762729614.850812) can0 471#0F6E000003F50000
(1762729614.852917) can0 2B1#801180110000008D
(1762729614.853005) can0 3B6#3201000000320500
(1762729614.853128) can0 3B6#330000000E000000
(1762729614.853249) can0 401#0000800000000000
(1762729614.856280) can0 37F#04B3000000000000
(1762729614.859028) can0 60A#220018030000
(1762729614.859902) can0 3E5#000000000000001C
(1762729614.859999) can0 364#2497000000000000
(1762729614.860122) can0 369#0000000000000000
(1762729614.860248) can0 36A#0000000000000000
(1762729614.860375) can0 36B#0000000000000000
(1762729614.860500) can0 371#0000000000000000
(1762729614.860625) can0 3E1#0000000000000000
(1762729614.860750) can0 3EA#0000000000000000
(1762729614.860872) can0 3EB#00000000FFCEFFCE
(1762729614.861006) can0 3ED#0000000000000000
(1762729614.861127) can0 3EF#0000000000000000
(1762729614.862907) can0 402#DD01720B04000200
(1762729614.862991) can0 2B1#801180110000008D
(1762729614.863119) can0 3B6#3201000000320500
(1762729614.863240) can0 3B6#330000000E000000
(1762729614.870782) can0 360#000003D000000000
(1762729614.870841) can0 361#133C046A00000000
(1762729614.870997) can0 362#00000000FFCE0000
(1762729614.871105) can0 36C#0000000000000000
(1762729614.871229) can0 36D#0000000000000000
(1762729614.871354) can0 36E#0000000000000000
(1762729614.871472) can0 372#00720000FC0B03F5
(1762729614.871600) can0 3E2#03E80000FFFF0000
(1762729614.871727) can0 3EC#0000000000000000
(1762729614.871847) can0 471#0F6C000003F50000
(1762729614.871971) can0 472#0000000000000000
(1762729614.872695) can0 60A#220018050000
(1762729614.872919) can0 2B1#801180110000008D
(1762729614.873038) can0 3B6#3201000000320500
(1762729614.873159) can0 3B6#330000000E000000
(1762729614.873866) can0 403#0200000000000000
(1762729614.881715) can0 3E5#000000000000001C
(1762729614.881805) can0 364#2497000000000000
(1762729614.881937) can0 36F#0000000000000000
(1762729614.882057) can0 370#0000000000000000
(1762729614.882175) can0 373#0000000000000000
(1762729614.882300) can0 3E3#0000000000000000
(1762729614.882434) can0 3E6#0000000000000000
(1762729614.882551) can0 3EA#0000000000000000
(1762729614.882678) can0 3EB#00000000FFCEFFCE
(1762729614.882803) can0 3ED#0000000000000000
(1762729614.882924) can0 2B1#801180110000008D
(1762729614.883046) can0 3B6#3201000000320500
(1762729614.883164) can0 3B6#330000000E000000
(1762729614.883292) can0 474#0000000000000000
(1762729614.884125) can0 401#0000800000000000
(1762729614.892695) can0 402#DE01720B04000200
(1762729614.892922) can0 2B1#801180110000008D
(1762729614.893048) can0 2BE#81007FFF00000000
(1762729614.893170) can0 360#000003D000000000
(1762729614.893298) can0 361#133C046700000000
(1762729614.893414) can0 362#00000000FFCE0000
(1762729614.893540) can0 374#0000000000000000
(1762729614.893661) can0 3B6#330000000E000000
(1762729614.893782) can0 3B6#3201000000320500
(1762729614.893907) can0 3E4#0001000100000080
(1762729614.894030) can0 3E9#0000000003570000
(1762729614.894158) can0 3EC#0000000000000000
(1762729614.894285) can0 471#0F6C000003F50000
(1762729614.894403) can0 476#0000000000000000
(1762729614.894529) can0 6F4#0000000000000000
(1762729614.902900) can0 2B1#801180110000008D
(1762729614.903027) can0 3B6#3201000000320500
(1762729614.903126) can0 3B6#330000000E000000
(1762729614.903258) can0 403#0200000000000000
(1762729614.903437) can0 3E5#000000000000001C
(1762729614.903564) can0 363#0000000000000000
(1762729614.903682) can0 364#2497000000000000
(1762729614.903803) can0 368#0011000000000000
(1762729614.903928) can0 375#0000000000000000
(1762729614.904058) can0 3EA#0000000000000000
(1762729614.904179) can0 3EB#00000000FFCEFFCE
(1762729614.904306) can0 3ED#0000000000000000
(1762729614.904427) can0 3EE#0000000000000000
(1762729614.904556) can0 470#001100000000FC00
(1762729614.904676) can0 6F0#0000000000000000
(1762729614.913018) can0 401#0000800000000000
(1762729614.913067) can0 3B6#3201000000320500
(1762729614.913147) can0 3B6#330000000E000000
(1762729614.914066) can0 360#000003D000000000
(1762729614.914165) can0 361#133C046700000000
(1762729614.914289) can0 362#00000000FFCE0000
(1762729614.914409) can0 369#0000000000000000
(1762729614.914528) can0 36A#0000000000000000
(1762729614.914656) can0 36B#0000000000000000
(1762729614.914787) can0 376#0000000000000000
(1762729614.914906) can0 3EC#0000000000000000
(1762729614.915031) can0 3EF#0000000000000000
(1762729614.915153) can0 471#0F6C000003F50000
(1762729614.915277) can0 6F1#0000000000000000
(1762729614.922489) can0 402#DD01720B04000200
(1762729614.922893) can0 2B1#801180110000008D
(1762729614.923006) can0 3B6#3201000000320500
(1762729614.923129) can0 3B6#330000000E000000
(1762729614.924756) can0 3E5#000000000000001C
(1762729614.924864) can0 364#2497000000000000
(1762729614.924986) can0 36C#0000000000000000
(1762729614.925109) can0 36D#0000000000000000
(1762729614.925241) can0 36E#0000000000000000
(1762729614.925361) can0 3EA#0000000000000000
(1762729614.925485) can0 3EB#00000000FFCEFFCE
(1762729614.925610) can0 3ED#0000000000000000
(1762729614.925736) can0 472#0000000000000000
(1762729614.925857) can0 473#0000000008000000
(1762729614.925982) can0 6F2#0000000000000000
(1762729614.932435) can0 403#0200000000000000
(1762729614.932920) can0 2B1#801180110000008D
(1762729614.933034) can0 3B6#3201000000320500
(1762729614.933154) can0 3B6#330000000E000000
(1762729614.934825) can0 360#000003D000000000
(1762729614.934943) can0 361#133C046700000000
(1762729614.935062) can0 362#00000000FFCE0000
(1762729614.935186) can0 36F#0000000000000000
(1762729614.935317) can0 370#0000000000000000
(1762729614.935444) can0 3E6#0000000000000000
(1762729614.935564) can0 3EC#0000000000000000
(1762729614.935681) can0 471#0F6C000003F50000
(1762729614.935812) can0 474#0000000000000000
(1762729614.935935) can0 477#FFFF000000000000
(1762729614.936061) can0 6F3#0DA80DA800000000
(1762729614.942667) can0 401#0000800000000000
(1762729614.942926) can0 2B1#801180110000008D
(1762729614.943050) can0 2B3#100F0E0000000000
(1762729614.943178) can0 2BE#0000000000FFFFFF
(1762729614.943303) can0 3B6#3201000000320500
(1762729614.943341) can0 3B6#19
(1762729614.943477) can0 3B6#330000000E000000
(1762729614.945883) can0 3E5#000000000000001C
(1762729614.946004) can0 364#2497000000000000
(1762729614.946109) can0 3E9#0000000003570000
(1762729614.946237) can0 3EA#0000000000000000
(1762729614.946358) can0 3EB#00000000FFCEFFCE
(1762729614.946489) can0 3ED#0000000000000000
(1762729614.946609) can0 475#0000000000000000
(1762729614.946741) can0 476#0000000000000000
(1762729614.946858) can0 6F4#0000000000000000
(1762729614.946981) can0 6F7#000000000BBA0000
(1762729614.952294) can0 402#DE01720B04000200
(1762729614.952901) can0 2B1#801180110000008D
(1762729614.953011) can0 3B6#3201000000320500
(1762729614.953131) can0 3B6#330000000E000000
(1762729614.956836) can0 360#000003D000000000
(1762729614.956962) can0 361#133E046500000000
(1762729614.957057) can0 362#00000000FFCE0000
(1762729614.957181) can0 363#0000000000000000
(1762729614.957308) can0 368#0011000000000000
(1762729614.957432) can0 3EC#0000000000000000
(1762729614.957561) can0 3EE#0000000000000000
(1762729614.957684) can0 470#001100000000FC00
(1762729614.957803) can0 471#0F6E000003F50000
(1762729614.957928) can0 6F6#0000000000000000
(1762729614.962327) can0 403#0200000000000000
(1762729614.962449) can0 37F#04AB000000000000
(1762729614.962924) can0 2B1#801180110000008D
(1762729614.963035) can0 3B6#3201000000320500
(1762729614.963156) can0 3B6#330000000E000000
(1762729614.969086) can0 3E5#000000000000001C
(1762729614.969206) can0 364#2497000000000000
(1762729614.969313) can0 369#0000000000000000
(1762729614.969438) can0 36A#0000000000000000
(1762729614.969566) can0 36B#0000000000000000
(1762729614.969686) can0 371#0000000000000000
(1762729614.969813) can0 3EA#0000000000000000
(1762729614.969935) can0 3EB#00000000FFCEFFCE
(1762729614.970062) can0 3ED#0000000000000000
(1762729614.970189) can0 3EF#0000000000000000
(1762729614.970312) can0 469#0C10000000000000
(1762729614.972168) can0 401#0000800000000000
(1762729614.972927) can0 2B1#801180110000008D
(1762729614.973025) can0 3B6#3201000000320500
(1762729614.973138) can0 3B6#330000000E000000
(1762729614.980019) can0 360#000003D000000000
(1762729614.980115) can0 361#133E046500000000
(1762729614.980246) can0 362#00000000FFCE0000
(1762729614.980364) can0 36C#0000000000000000
(1762729614.980486) can0 36D#0000000000000000
(1762729614.980608) can0 36E#0000000000000000
(1762729614.980735) can0 372#00720000FC0B03F5
(1762729614.980860) can0 3EC#0000000000000000
(1762729614.980996) can0 471#0F6E000003F50000
(1762729614.981114) can0 472#0000000000000000
(1762729614.981230) can0 6F8#00000000000003E8
(1762729614.982076) can0 402#DD01720B04000200
(1762729614.983086) can0 2B1#801180110000008D
(1762729614.983122) can0 3B6#3201000000320500
(1762729614.983151) can0 3B6#330000000E000000
(1762729614.990743) can0 3E5#000000000000001C
(1762729614.990873) can0 364#2497000000000000
(1762729614.990984) can0 36F#0000000000000000
(1762729614.991090) can0 370#0000000000000000
(1762729614.991219) can0 373#0000000000000000
(1762729614.991345) can0 3E6#0000000000000000
(1762729614.991468) can0 3EA#0000000000000000
(1762729614.991592) can0 3EB#00000000FFCEFFCE
(1762729614.991717) can0 3ED#0000000000000000
(1762729614.991844) can0 474#0000000000000000
(1762729614.992623) can0 403#0200000000000000
(1762729614.992939) can0 2B1#801180110000008D
(1762729614.993052) can0 2BE#01007FFF00000000
(1762729614.993185) can0 3B6#330000000E000000
(1762729614.993296) can0 3B6#3201000000320500
(1762729615.002063) can0 401#0000800000000000
(1762729615.002206) can0 360#000003D000000000
(1762729615.002326) can0 361#133E046200000000
(1762729615.002452) can0 362#00000000FFCE0000
(1762729615.002576) can0 374#0000000000000000
(1762729615.002696) can0 3E9#0000000003570000
(1762729615.002831) can0 3EC#0000000000000000
(1762729615.002943) can0 2B1#801180110000008D
(1762729615.003074) can0 3B6#3201000000320500
(1762729615.003194) can0 3B6#330000000E000000
(1762729615.003308) can0 471#0F6E000003F50000
(1762729615.003433) can0 476#0000000000000000
(1762729615.003558) can0 6F4#0000000000000000
(1762729615.005662) can0 100#0000000000000000
(1762729615.005779) can0 100#0100000000000000
(1762729615.005898) can0 100#0400000000000000
(1762729615.006023) can0 100#0200000000000000
(1762729615.006150) can0 100#0300000000000000
(1762729615.006276) can0 100#0500000000000000
(1762729615.006399) can0 100#0600000000000000
(1762729615.006525) can0 100#0700000000000000
(1762729615.011887) can0 402#DD01720B04000200
(1762729615.012939) can0 2B1#801180110000008D
(1762729615.013053) can0 3B6#3201000000320500
(1762729615.013171) can0 3B6#330000000E000000
(1762729615.013750) can0 3E5#000000000000001C
(1762729615.013855) can0 363#0000000000000000
(1762729615.013976) can0 364#2497000000000000
(1762729615.014101) can0 368#0011000000000000
(1762729615.014230) can0 375#0000000000000000
(1762729615.014353) can0 3EA#0000000000000000
(1762729615.014473) can0 3EB#00000000FFCEFFCE
(1762729615.014601) can0 3ED#0000000000000000
(1762729615.014725) can0 3EE#0000000000000000
(1762729615.014854) can0 470#001100000000FC00
(1762729615.022124) can0 403#0200000000000000
(1762729615.022917) can0 2B1#801180110000008D
(1762729615.023024) can0 3B6#3201000000320500
(1762729615.023139) can0 3B6#330000000E000000
(1762729615.025122) can0 360#000003D000000000
(1762729615.025244) can0 361#133E046200000000
(1762729615.025354) can0 362#00000000FFCE0000
(1762729615.025480) can0 369#0000000000000000
(1762729615.025603) can0 36A#0000000000000000
(1762729615.025723) can0 36B#0000000000000000
(1762729615.025848) can0 376#0000000000000000
(1762729615.025977) can0 3EC#0000000000000000
(1762729615.026103) can0 3EF#0000000000000000
(1762729615.026224) can0 471#0F6E000003F50000
(1762729615.031953) can0 401#0000800000000000
(1762729615.032939) can0 2B1#801180110000008D
(1762729615.033064) can0 3B6#3201000000320500
(1762729615.033164) can0 3B6#330000000E000000
(1762729615.035593) can0 3E5#000000000000001C
(1762729615.035695) can0 364#2497000000000000
(1762729615.035823) can0 36C#0000000000000000
(1762729615.035947) can0 36D#0000000000000000
(1762729615.036065) can0 36E#0000000000000000
(1762729615.036195) can0 3EA#0000000000000000
(1762729615.036319) can0 3EB#00000000FFCEFFCE
(1762729615.036447) can0 3ED#0000000000000000
(1762729615.036572) can0 472#0000000000000000
(1762729615.036694) can0 473#0000000008000000
(1762729615.041702) can0 402#DD01710B04000200
(1762729615.041911) can0 60B#221710009600
(1762729615.043121) can0 2B1#801180110000008D
(1762729615.043351) can0 2B3#100F0E0000000000
(1762729615.043380) can0 2BE#8000000000FFFFFF
(1762729615.043403) can0 3B6#330000000E000000
(1762729615.046328) can0 360#000003D000000000
(1762729615.046428) can0 361#133E046200000000
(1762729615.046548) can0 362#00000000FFCE0000
(1762729615.046678) can0 36F#0000000000000000
(1762729615.046799) can0 370#0000000000000000
(1762729615.046932) can0 3E6#0000000000000000
(1762729615.047057) can0 3EC#0000000000000000
(1762729615.047167) can0 471#0F6E000003F50000
(1762729615.047300) can0 474#0000000000000000
(1762729615.047421) can0 477#FFFF000000000000
(1762729615.051636) can0 403#0200000000000000
(1762729615.052957) can0 2B1#801180110000008D
(1762729615.053047) can0 3B6#3201000000320500
(1762729615.053200) can0 3B6#330000000E000000
(1762729615.055967) can0 60B#2200180200
(1762729615.056638) can0 3E5#000000000000001C
(1762729615.056758) can0 364#2497000000000000
(1762729615.056873) can0 3E9#0000000003570000
(1762729615.057009) can0 3EA#0000000000000000
(1762729615.057125) can0 3EB#00000000FFCEFFCE
(1762729615.057248) can0 3ED#0000000000000000
(1762729615.057378) can0 476#0000000000000000
(1762729615.057509) can0 6F4#0000000000000000
(1762729615.057621) can0 6F7#000000000BB90000
(1762729615.061852) can0 401#0000800000000000
(1762729615.062875) can0 37F#04AB000000000000
(1762729615.062993) can0 2B1#801180110000008D
(1762729615.063113) can0 3B6#3201000000320500
(1762729615.063235) can0 3B6#330000000E000000
(1762729615.065591) can0 60B#220018030000
(1762729615.066652) can0 360#000003D000000000
(1762729615.066736) can0 361#133E046200000000
(1762729615.066877) can0 362#00000000FFCE0000
(1762729615.066990) can0 363#0000000000000000
(1762729615.067107) can0 368#0011000000000000
(1762729615.067228) can0 3E0#0BC80BB900000BCC
(1762729615.067357) can0 3EC#0000000000000000
(1762729615.067486) can0 3EE#0000000000000000
(1762729615.067613) can0 470#001100000000FC00
(1762729615.067727) can0 471#0F6E000003F50000
(1762729615.071493) can0 402#DB016E0B04000200
(1762729615.072916) can0 2B1#801180110000008D
(1762729615.073037) can0 3B6#3201000000320500
(1762729615.073155) can0 3B6#330000000E000000
(1762729615.077926) can0 3E5#000000000000001C
(1762729615.078045) can0 364#2497000000000000
(1762729615.078156) can0 369#0000000000000000
(1762729615.078278) can0 36A#0000000000000000
(1762729615.078406) can0 36B#0000000000000000
(1762729615.078530) can0 371#0000000000000000
(1762729615.078658) can0 3E1#0000000000000000
(1762729615.078783) can0 3EA#0000000000000000
(1762729615.078907) can0 3EB#00000000FFCEFFCE
(1762729615.079035) can0 3ED#0000000000000000
(1762729615.079161) can0 3EF#0000000000000000
(1762729615.079265) can0 60B#220018050000
(1762729615.081497) can0 403#0200000000000000
(1762729615.082934) can0 3B6#3201000000320500
(1762729615.083076) can0 2B1#801180110000008D
(1762729615.083162) can0 3B6#330000000E000000
(1762729615.088938) can0 360#000003D000000000
(1762729615.089001) can0 361#133E046200000000
(1762729615.089140) can0 362#00000000FFCE0000
(1762729615.089253) can0 36C#0000000000000000
(1762729615.089375) can0 36D#0000000000000000
(1762729615.089497) can0 36E#0000000000000000
(1762729615.089625) can0 372#00720000FC0B03F5
(1762729615.089745) can0 3E2#03E80000FFFF0000
(1762729615.089869) can0 3EC#0000000000000000
(1762729615.089988) can0 471#0F6E000003F50000
(1762729615.090115) can0 472#0000000000000000
(1762729615.091347) can0 401#0000800000000000
(1762729615.092914) can0 2B1#801180110000008D
(1762729615.093031) can0 2BE#81007FFF00000000
(1762729615.093147) can0 3B6#330000000E000000
(1762729615.093271) can0 3B6#3201000000320500
(1762729615.098895) can0 3E5#000000000000001C
(1762729615.099014) can0 364#2497000000000000
(1762729615.099139) can0 36F#0000000000000000
(1762729615.099266) can0 370#0000000000000000
(1762729615.099395) can0 373#0000000000000000
(1762729615.099518) can0 3E3#0000000000000000
(1762729615.099640) can0 3E6#0000000000000000
(1762729615.099770) can0 3EA#0000000000000000
(1762729615.099892) can0 3EB#00000000FFCEFFCE
(1762729615.100018) can0 3ED#0000000000000000
(1762729615.100144) can0 474#0000000000000000
(1762729615.101293) can0 402#DC016E0B04000200
(1762729615.102954) can0 2B1#801180110000008D
(1762729615.103053) can0 3B6#3201000000320500
(1762729615.103173) can0 3B6#330000000E000000
(1762729615.109568) can0 360#000003D000000000
(1762729615.109668) can0 361#133C046500000000
(1762729615.109783) can0 362#00000000FFCE0000
(1762729615.109908) can0 374#0000000000000000
(1762729615.110035) can0 3E4#0001000100000080
(1762729615.110159) can0 3E9#0000000003570000
(1762729615.110284) can0 3EC#0000000000000000
(1762729615.110404) can0 471#0F6E000003F50000
(1762729615.110530) can0 476#0000000000000000
(1762729615.110654) can0 6F4#0000000000000000
(1762729615.111407) can0 403#0200000000000000
(1762729615.112921) can0 2B1#801180110000008D
(1762729615.113033) can0 3B6#3201000000320500
(1762729615.113157) can0 3B6#330000000E000000
(1762729615.120713) can0 3E5#000000000000001C
(1762729615.120801) can0 363#0000000000000000
(1762729615.120974) can0 364#2497000000000000
(1762729615.121044) can0 368#0011000000000000
(1762729615.121175) can0 375#0000000000000000
(1762729615.121304) can0 3EA#0000000000000000
(1762729615.121420) can0 3EB#00000000FFCEFFCE
(1762729615.121552) can0 3ED#0000000000000000
(1762729615.121861) can0 3EE#0000000000000000
(1762729615.121926) can0 470#001100000000FC00
(1762729615.121989) can0 6F0#0000000000000000
(1762729615.122475) can0 401#0000800000000000
(1762729615.122954) can0 2B1#801180110000008D
(1762729615.123077) can0 3B6#3201000000320500
(1762729615.123178) can0 3B6#330000000E000000
(1762729615.131066) can0 402#DC016D0B04000200
(1762729615.131666) can0 360#000003D000000000
(1762729615.131786) can0 361#133B046200000000
(1762729615.131910) can0 362#00000000FFCE0000
(1762729615.132033) can0 369#0000000000000000
(1762729615.132159) can0 36A#0000000000000000
(1762729615.132283) can0 36B#0000000000000000
(1762729615.132408) can0 376#0000000000000000
(1762729615.132536) can0 3EC#0000000000000000
(1762729615.132662) can0 3EF#0000000000000000
(1762729615.132783) can0 471#0F6C000003F50000
(1762729615.132907) can0 6F1#0000000000000000
(1762729615.133028) can0 2B1#801180110000008D
(1762729615.133150) can0 3B6#3201000000320500
(1762729615.133273) can0 3B6#330000000E000000
(1762729615.141317) can0 403#0200000000000000
(1762729615.142930) can0 2B1#801180110000008D
(1762729615.143043) can0 2B3#100F0E0000000000
(1762729615.143163) can0 2BE#0000000000FFFFFF
(1762729615.143279) can0 3B6#3201000000320500
(1762729615.143405) can0 3B6#330000000E000000
(1762729615.144104) can0 3E5#000000000000001C
(1762729615.144216) can0 364#2497000000000000
(1762729615.144339) can0 36C#0000000000000000
(1762729615.144461) can0 36D#0000000000000000
(1762729615.144585) can0 36E#0000000000000000
(1762729615.144716) can0 3EA#0000000000000000
(1762729615.144837) can0 3EB#00000000FFCEFFCE
(1762729615.144959) can0 3ED#0000000000000000
(1762729615.145081) can0 472#0000000000000000
(1762729615.145206) can0 473#0000000008000000
(1762729615.145331) can0 6F2#0000000000000000
(1762729615.151150) can0 401#0000800000000000
(1762729615.152985) can0 2B1#801180110000008D
(1762729615.153056) can0 3B6#3201000000320500
(1762729615.153214) can0 3B6#330000000E000000
(1762729615.154032) can0 360#000003D000000000
(1762729615.154102) can0 361#133C046200000000
(1762729615.154252) can0 362#00000000FFCE0000
(1762729615.154360) can0 36F#0000000000000000
(1762729615.154489) can0 370#0000000000000000
(1762729615.154619) can0 3E6#0000000000000000
(1762729615.154748) can0 3EC#0000000000000000
(1762729615.154860) can0 471#0F6C000003F50000
(1762729615.154992) can0 474#0000000000000000
(1762729615.155108) can0 477#FFFF000000000000
(1762729615.155244) can0 6F3#0DA80DA800000000
(1762729615.160861) can0 402#DC016D0B04000200
(1762729615.162908) can0 2B1#801180110000008D
(1762729615.163027) can0 3B6#3201000000320500
(1762729615.163149) can0 3B6#330000000E000000
(1762729615.164116) can0 37F#04AD000000000000
(1762729615.164510) can0 3E5#000000000000001C
(1762729615.164632) can0 364#2497000000000000
(1762729615.164756) can0 3E9#0000000003570000
(1762729615.164884) can0 3EA#0000000000000000
(1762729615.165006) can0 3EB#00000000FFCEFFCE
(1762729615.165131) can0 3ED#0000000000000000
(1762729615.165256) can0 475#0000000000000000
(1762729615.165383) can0 476#0000000000000000
(1762729615.165505) can0 6F4#0000000000000000
(1762729615.165628) can0 6F7#000000000BB90000
(1762729615.170864) can0 403#0200000000000000
(1762729615.173172) can0 2B1#801180110000008D
(1762729615.173221) can0 3B6#3201000000320500
(1762729615.173250) can0 3B6#330000000E000000
(1762729615.175485) can0 360#000003D000000000
(1762729615.175596) can0 361#133C046200000000
(1762729615.175724) can0 362#00000000FFCE0000
(1762729615.175845) can0 363#0000000000000000
(1762729615.175969) can0 368#0011000000000000
(1762729615.176095) can0 3EC#0000000000000000
(1762729615.176219) can0 3EE#0000000000000000
(1762729615.176344) can0 470#001100000000FC00
(1762729615.176464) can0 471#0F6C000003F50000
(1762729615.176588) can0 6F6#0000000000000000
(1762729615.181046) can0 401#0000800000000000
(1762729615.182936) can0 2B1#801180110000008D
(1762729615.183066) can0 3B6#3201000000320500
(1762729615.183190) can0 3B6#330000000E000000
(1762729615.184731) can0 3E5#000000000000001C
(1762729615.184842) can0 364#2497000000000000
(1762729615.184962) can0 369#0000000000000000
(1762729615.185093) can0 36A#0000000000000000
(1762729615.185212) can0 36B#0000000000000000
(1762729615.185351) can0 371#0000000000000000
(1762729615.185468) can0 3EA#0000000000000000
(1762729615.185599) can0 3EB#00000000FFCEFFCE
(1762729615.185728) can0 3ED#0000000000000000
(1762729615.185851) can0 3EF#0000000000000000
(1762729615.185973) can0 469#0C0F000000000000
(1762729615.190705) can0 402#DB016D0B04000200
(1762729615.192929) can0 2B1#801180110000008C
(1762729615.193050) can0 2BE#01007FFF00000000
(1762729615.193166) can0 3B6#330000000E000000
(1762729615.193287) can0 3B6#3201000000320500
(1762729615.195498) can0 360#000003D000000000
(1762729615.195626) can0 361#133C046500000000
(1762729615.195732) can0 362#00000000FFCE0000
(1762729615.195853) can0 36C#0000000000000000
(1762729615.195981) can0 36D#0000000000000000
(1762729615.196103) can0 36E#0000000000000000
(1762729615.196219) can0 372#00720000FC0B03F5
(1762729615.196351) can0 3EC#0000000000000000
(1762729615.196468) can0 471#0F6C000003F50000
(1762729615.196596) can0 472#0000000000000000
(1762729615.196719) can0 6F8#00000000000003E8
(1762729615.200705) can0 403#0200000000000000
(1762729615.202968) can0 2B1#801180110000008D
(1762729615.203057) can0 3B6#3201000000320500
(1762729615.203203) can0 3B6#330000000E000000
(1762729615.205453) can0 3E5#000000000000001C
(1762729615.205533) can0 364#2497000000000000
(1762729615.205686) can0 36F#0000000000000000
(1762729615.205811) can0 370#0000000000000000
(1762729615.205912) can0 373#0000000000000000
(1762729615.206041) can0 3E6#0000000000000000
(1762729615.206162) can0 3EA#0000000000000000
(1762729615.206295) can0 3EB#00000000FFCEFFCE
(1762729615.206408) can0 3ED#0000000000000000
(1762729615.206543) can0 474#0000000000000000
(1762729615.210556) can0 401#0000800000000000
(1762729615.212918) can0 2B1#801180110000008D
(1762729615.213036) can0 3B6#3201000000320500
(1762729615.213148) can0 3B6#330000000E000000
(1762729615.216238) can0 360#000003D000000000
(1762729615.216358) can0 361#133E046500000000
(1762729615.216484) can0 362#00000000FFCE0000
(1762729615.216608) can0 374#0000000000000000
(1762729615.216732) can0 3E9#0000000003570000
(1762729615.216863) can0 3EC#0000000000000000
(1762729615.216978) can0 471#0F6C000003F50000
(1762729615.217103) can0 476#0000000000000000
(1762729615.217229) can0 6F4#0000000000000000
(1762729615.220494) can0 402#DA016D0B04000200
(1762729615.222987) can0 2B1#801180110000008D
(1762729615.223054) can0 3B6#3201000000320500
(1762729615.223220) can0 3B6#330000000E000000
(1762729615.227489) can0 3E5#000000000000001C
(1762729615.227607) can0 363#0000000000000000
(1762729615.227722) can0 364#2497000000000000
(1762729615.227844) can0 368#0011000000000000
(1762729615.227968) can0 375#0000000000000000
(1762729615.228095) can0 3EA#0000000000000000
(1762729615.228218) can0 3EB#00000000FFCEFFCE
(1762729615.228344) can0 3ED#0000000000000000
(1762729615.228474) can0 3EE#0000000000000000
(1762729615.228595) can0 470#001100000000FC00
(1762729615.230609) can0 403#0200000000000000
(1762729615.232921) can0 2B1#801180110000008D
(1762729615.233057) can0 3B6#3201000000320500
(1762729615.233147) can0 3B6#330000000E000000
(1762729615.239492) can0 360#000003D000000000
(1762729615.239585) can0 361#1340046700000000
(1762729615.239765) can0 362#00000000FFCE0000
(1762729615.239829) can0 369#0000000000000000
(1762729615.239952) can0 36A#0000000000000000
(1762729615.240076) can0 36B#0000000000000000
(1762729615.240214) can0 376#0000000000000000
(1762729615.240478) can0 3EC#0000000000000000
(1762729615.240564) can0 3EF#0000000000000000
(1762729615.240635) can0 471#0F6E000003F50000
(1762729615.241267) can0 401#0000800000000000
(1762729615.242956) can0 2B1#801180110000008D
(1762729615.243085) can0 2B3#100F0E0000000000
(1762729615.243180) can0 2BE#8000000000FFFFFF
(1762729615.243300) can0 3B6#3201000000320500
(1762729615.243423) can0 3B6#330000000E000000
(1762729615.248976) can0 3E5#000000000000001C
(1762729615.249101) can0 364#24A1000000000000
(1762729615.249221) can0 36C#0000000000000000
(1762729615.249348) can0 36D#0000000000000000
(1762729615.249469) can0 36E#0000000000000000
(1762729615.249597) can0 3EA#0000000000000000
(1762729615.249719) can0 3EB#00000000FFCEFFCE
(1762729615.249846) can0 3ED#0000000000000000
(1762729615.249970) can0 472#0000000000000000
(1762729615.250094) can0 473#0000000008000000
(1762729615.250238) can0 402#DA016D0B04000200
(1762729615.252271) can0 60C#221710009600
(1762729615.252967) can0 2B1#801180110000008D
(1762729615.253056) can0 3B6#3201000000320500
(1762729615.253178) can0 3B6#330000000E000000
(1762729615.259528) can0 360#000003D000000000
(1762729615.259658) can0 361#133E046700000000
(1762729615.259763) can0 362#00000000FFCE0000
(1762729615.259892) can0 36F#0000000000000000
(1762729615.260015) can0 370#0000000000000000
(1762729615.260140) can0 3E6#0000000000000000
(1762729615.260271) can0 3EC#0000000000000000
(1762729615.260383) can0 471#0F6E000003F50000
(1762729615.260514) can0 474#0000000000000000
(1762729615.260636) can0 477#FFFF000000000000
(1762729615.261321) can0 403#0200000000000000
(1762729615.262920) can0 2B1#801180110000008D
(1762729615.263030) can0 3B6#3201000000320500
(1762729615.263157) can0 3B6#330000000E000000
(1762729615.265535) can0 60C#2200180200
(1762729615.270365) can0 401#0000800000000000
(1762729615.271313) can0 3E5#000000000000001C
(1762729615.271414) can0 364#24A1000000000000
(1762729615.271535) can0 3E9#0000000003570000
(1762729615.271669) can0 3EA#0000000000000000
(1762729615.271784) can0 3EB#00000000FFCEFFCE
(1762729615.271910) can0 3ED#0000000000000000
(1762729615.272032) can0 476#0000000000000000
(1762729615.272157) can0 6F4#0000000000000000
(1762729615.272287) can0 6F7#000000000BB80000
(1762729615.272655) can0 37F#04B0000000000000
(1762729615.272943) can0 2B1#801180110000008D
(1762729615.273061) can0 3B6#3201000000320500
(1762729615.273180) can0 3B6#330000000E000000
(1762729615.278997) can0 60C#220018030000
(1762729615.280055) can0 402#D9016D0B04000200
(1762729615.282233) can0 360#000003D000000000
(1762729615.282344) can0 361#133C046500000000
(1762729615.282463) can0 362#00000000FFCE0000
(1762729615.282590) can0 363#0000000000000000
(1762729615.282714) can0 368#0011000000000000
(1762729615.282831) can0 3E0#0BC80BB900000BCC
(1762729615.282953) can0 2B1#801180110000008D
(1762729615.283072) can0 3B6#3201000000320500
(1762729615.283196) can0 3B6#330000000E000000
(1762729615.283328) can0 3EC#0000000000000000
(1762729615.283451) can0 3EE#0000000000000000
(1762729615.283572) can0 470#001100000000FC00
(1762729615.283691) can0 471#0F6E000003F50000
(1762729615.290024) can0 403#0200000000000000
(1762729615.292860) can0 60C#220018050000
(1762729615.292942) can0 2B1#801180110000008C
(1762729615.293071) can0 2BE#81007FFF00000000
(1762729615.293199) can0 3B6#330000000E000000
(1762729615.293309) can0 3B6#3201000000320500
(1762729615.294263) can0 3E5#000000000000001C
(1762729615.294376) can0 364#24A1000000000000
(1762729615.294497) can0 369#0000000000000000
(1762729615.294619) can0 36A#0000000000000000
(1762729615.294744) can0 36B#0000000000000000
(1762729615.294866) can0 371#0000000000000000
(1762729615.294992) can0 3E1#0000000000000000
(1762729615.295121) can0 3EA#0000000000000000
(1762729615.295239) can0 3EB#00000000FFCEFFCE
(1762729615.295368) can0 3ED#0000000000000000
(1762729615.295495) can0 3EF#0000000000000000
(1762729615.300235) can0 401#0000800000000000
(1762729615.302912) can0 2B1#801180110000008D
(1762729615.303045) can0 3B6#3201000000320500
(1762729615.303153) can0 3B6#330000000E000000
(1762729615.305474) can0 360#000003D000000000
(1762729615.305542) can0 361#133C046500000000
(1762729615.305668) can0 362#00000000FFCE0000
(1762729615.305787) can0 36C#0000000000000000
(1762729615.305909) can0 36D#0000000000000000
(1762729615.306028) can0 36E#0000000000000000
(1762729615.306153) can0 372#00720000FC0B03F5
(1762729615.306276) can0 3E2#03E80000FFFF0000
(1762729615.306407) can0 3EC#0000000000000000
(1762729615.306535) can0 471#0F6C000003F50000
(1762729615.306647) can0 472#0000000000000000
(1762729615.309887) can0 402#D9016C0B04000200
(1762729615.312941) can0 2B1#801180110000008D
(1762729615.313055) can0 3B6#3201000000320500
(1762729615.313172) can0 3B6#330000000E000000
(1762729615.316283) can0 3E5#000000000000001C
(1762729615.316405) can0 364#24A1000000000000
(1762729615.316533) can0 36F#0000000000000000
(1762729615.316654) can0 370#0000000000000000
(1762729615.316778) can0 373#0000000000000000
(1762729615.316904) can0 3E3#0000000000000000
(1762729615.317029) can0 3E6#0000000000000000
(1762729615.317155) can0 3EA#0000000000000000
(1762729615.317280) can0 3EB#00000000FFCEFFCE
(1762729615.317405) can0 3ED#0000000000000000
(1762729615.317532) can0 474#0000000000000000
(1762729615.319897) can0 403#0200000000000000
(1762729615.322979) can0 2B1#801180110000008D
(1762729615.323071) can0 3B6#3201000000320500
(1762729615.323215) can0 3B6#330000000E000000
(1762729615.327419) can0 360#000003D000000000
(1762729615.327544) can0 361#133C046700000000
(1762729615.327652) can0 362#00000000FFCE0000
(1762729615.327775) can0 374#0000000000000000
(1762729615.327904) can0 3E4#0001000100000080
(1762729615.328022) can0 3E9#0000000003570000
(1762729615.328148) can0 3EC#0000000000000000
(1762729615.328278) can0 471#0F6C000003F50000
(1762729615.328395) can0 476#0000000000000000
(1762729615.328530) can0 6F4#0000000000000000
(1762729615.329745) can0 401#0000800000000000
(1762729615.332927) can0 2B1#801180110000008D
(1762729615.333050) can0 3B6#3201000000320500
(1762729615.333156) can0 3B6#330000000E000000
(1762729615.339207) can0 3E5#000000000000001C
(1762729615.339302) can0 363#0000000000000000
(1762729615.339463) can0 364#2497000000000000
(1762729615.339555) can0 368#0011000000000000
(1762729615.339671) can0 375#0000000000000000
(1762729615.339803) can0 3EA#0000000000000000
(1762729615.339922) can0 3EB#00000000FFCEFFCE
(1762729615.340049) can0 3ED#0000000000000000
(1762729615.340181) can0 3EE#0000000000000000
(1762729615.340289) can0 402#D9016C0B04000200
(1762729615.340422) can0 470#001100000000FC00
(1762729615.340546) can0 6F0#0000000000000000
(1762729615.342976) can0 2B1#801180110000008D
(1762729615.343075) can0 2B3#100F0E0000000000
(1762729615.343207) can0 2BE#0000000000FFFFFF
(1762729615.343328) can0 3B6#3201000000320500
(1762729615.343447) can0 3B6#330000000E000000
(1762729615.343996) can0 6F5#0000000000000000
(1762729615.348509) can0 360#000003D000000000
(1762729615.348621) can0 361#133E046700000000
(1762729615.348736) can0 362#00000000FFCE0000
(1762729615.348862) can0 369#0000000000000000
(1762729615.348985) can0 36A#0000000000000000
(1762729615.349109) can0 36B#0000000000000000
(1762729615.349235) can0 376#0000000000000000
(1762729615.349362) can0 3EC#0000000000000000
(1762729615.349488) can0 3EF#0000000000000000
(1762729615.349610) can0 471#0F6C000003F50000
(1762729615.349735) can0 6F1#0000000000000000
(1762729615.350291) can0 403#0200000000000000
(1762729615.352893) can0 3B6#3201000000320500
(1762729615.353012) can0 2B1#801180110000008D
(1762729615.353135) can0 3B6#330000000E000000
(1762729615.359353) can0 3E5#000000000000001C
(1762729615.359424) can0 364#2497000000000000
(1762729615.359598) can0 36C#0000000000000000
(1762729615.359693) can0 36D#0000000000000000
(1762729615.359809) can0 36E#0000000000000000
(1762729615.359934) can0 3EA#0000000000000000
(1762729615.360057) can0 3EB#00000000FFCEFFCE
(1762729615.360182) can0 3ED#0000000000000000
(1762729615.360310) can0 472#0000000000000000
(1762729615.360432) can0 473#0000000008000000
(1762729615.360565) can0 6F2#0000000000000000
(1762729615.361362) can0 401#0000800000000000
(1762729615.362953) can0 2B1#801180110000008D
(1762729615.363074) can0 3B6#3201000000320500
(1762729615.363193) can0 3B6#330000000E000000
(1762729615.369563) can0 402#D9016D0B04000200
(1762729615.370702) can0 360#000003D000000000
(1762729615.370816) can0 361#133E046700000000
(1762729615.370962) can0 362#00000000FFCE0000
(1762729615.371062) can0 36F#0000000000000000
(1762729615.371186) can0 370#0000000000000000
(1762729615.371311) can0 3E6#0000000000000000
(1762729615.371446) can0 3EC#0000000000000000
(1762729615.371568) can0 471#0F6E000003F50000
